mkdir -p /get/work/krishna.vardhan/git_trees/mtp_pcie_axi/pcie_axi_dma_latency/build_kv_scenario2_stall_fifo64
cd /get/work/krishna.vardhan/git_trees/mtp_pcie_axi/pcie_axi_dma_latency/build_kv_scenario2_stall_fifo64 && \
xvlog --sv --incr \
    /get/work/krishna.vardhan/git_trees/mtp_pcie_axi/pcie_axi_dma_latency/design/rtl/pcie_axi_pkg.sv /get/work/krishna.vardhan/git_trees/mtp_pcie_axi/pcie_axi_dma_latency/design/rtl/pcie_model.sv /get/work/krishna.vardhan/git_trees/mtp_pcie_axi/pcie_axi_dma_latency/design/rtl/dma_model.sv /get/work/krishna.vardhan/git_trees/mtp_pcie_axi/pcie_axi_dma_latency/design/rtl/axi_mm2s_adapter.sv /get/work/krishna.vardhan/git_trees/mtp_pcie_axi/pcie_axi_dma_latency/design/rtl/axis_fifo.sv /get/work/krishna.vardhan/git_trees/mtp_pcie_axi/pcie_axi_dma_latency/design/rtl/batching_unit.sv /get/work/krishna.vardhan/git_trees/mtp_pcie_axi/pcie_axi_dma_latency/design/rtl/stream_sink.sv /get/work/krishna.vardhan/git_trees/mtp_pcie_axi/pcie_axi_dma_latency/design/rtl/latency_monitor.sv /get/work/krishna.vardhan/git_trees/mtp_pcie_axi/pcie_axi_dma_latency/design/rtl/pcie_axi_dma_top.sv /get/work/krishna.vardhan/git_trees/mtp_pcie_axi/pcie_axi_dma_latency/verif/tb/tb_pcie_axi_dma.sv \
    -log xvlog.log
INFO: [VRFC 10-2263] Analyzing SystemVerilog file "/get/work/krishna.vardhan/git_trees/mtp_pcie_axi/pcie_axi_dma_latency/design/rtl/pcie_axi_pkg.sv" into library work
INFO: [VRFC 10-2263] Analyzing SystemVerilog file "/get/work/krishna.vardhan/git_trees/mtp_pcie_axi/pcie_axi_dma_latency/design/rtl/pcie_model.sv" into library work
INFO: [VRFC 10-311] analyzing module pcie_model
INFO: [VRFC 10-2263] Analyzing SystemVerilog file "/get/work/krishna.vardhan/git_trees/mtp_pcie_axi/pcie_axi_dma_latency/design/rtl/dma_model.sv" into library work
INFO: [VRFC 10-311] analyzing module dma_model
INFO: [VRFC 10-2263] Analyzing SystemVerilog file "/get/work/krishna.vardhan/git_trees/mtp_pcie_axi/pcie_axi_dma_latency/design/rtl/axi_mm2s_adapter.sv" into library work
INFO: [VRFC 10-311] analyzing module axi_mm2s_adapter
INFO: [VRFC 10-2263] Analyzing SystemVerilog file "/get/work/krishna.vardhan/git_trees/mtp_pcie_axi/pcie_axi_dma_latency/design/rtl/axis_fifo.sv" into library work
INFO: [VRFC 10-311] analyzing module axis_fifo
INFO: [VRFC 10-2263] Analyzing SystemVerilog file "/get/work/krishna.vardhan/git_trees/mtp_pcie_axi/pcie_axi_dma_latency/design/rtl/batching_unit.sv" into library work
INFO: [VRFC 10-311] analyzing module batching_unit
INFO: [VRFC 10-2263] Analyzing SystemVerilog file "/get/work/krishna.vardhan/git_trees/mtp_pcie_axi/pcie_axi_dma_latency/design/rtl/stream_sink.sv" into library work
INFO: [VRFC 10-311] analyzing module stream_sink
INFO: [VRFC 10-2263] Analyzing SystemVerilog file "/get/work/krishna.vardhan/git_trees/mtp_pcie_axi/pcie_axi_dma_latency/design/rtl/latency_monitor.sv" into library work
INFO: [VRFC 10-311] analyzing module latency_monitor
INFO: [VRFC 10-2263] Analyzing SystemVerilog file "/get/work/krishna.vardhan/git_trees/mtp_pcie_axi/pcie_axi_dma_latency/design/rtl/pcie_axi_dma_top.sv" into library work
INFO: [VRFC 10-311] analyzing module pcie_axi_dma_top
INFO: [VRFC 10-2263] Analyzing SystemVerilog file "/get/work/krishna.vardhan/git_trees/mtp_pcie_axi/pcie_axi_dma_latency/verif/tb/tb_pcie_axi_dma.sv" into library work
INFO: [VRFC 10-311] analyzing module tb_pcie_axi_dma
touch /get/work/krishna.vardhan/git_trees/mtp_pcie_axi/pcie_axi_dma_latency/build_kv_scenario2_stall_fifo64/.compiled
cd /get/work/krishna.vardhan/git_trees/mtp_pcie_axi/pcie_axi_dma_latency/build_kv_scenario2_stall_fifo64 && \
xelab tb_pcie_axi_dma \
    --snapshot tb_pcie_axi_dma_snap \
    -generic_top "TB_SCENARIO=2" -generic_top "FIFO_DEPTH=64" -generic_top "BATCH_COUNT=4" -generic_top "BATCH_TIMEOUT=64" -generic_top "SINK_STALL_EN=1" -generic_top "SINK_STALL_PERIOD=4" -generic_top "SINK_STALL_READY=1" \
    --timescale 1ns/1ps \
    --debug typical \
    -log xelab.log
Vivado Simulator v2022.2
Copyright 1986-1999, 2001-2022 Xilinx, Inc. All Rights Reserved.
Running: /tools/Xilinx/Vivado/2022.2/bin/unwrapped/lnx64.o/xelab tb_pcie_axi_dma --snapshot tb_pcie_axi_dma_snap -generic_top TB_SCENARIO=2 -generic_top FIFO_DEPTH=64 -generic_top BATCH_COUNT=4 -generic_top BATCH_TIMEOUT=64 -generic_top SINK_STALL_EN=1 -generic_top SINK_STALL_PERIOD=4 -generic_top SINK_STALL_READY=1 --timescale 1ns/1ps --debug typical -log xelab.log 
Multi-threading is on. Using 2 slave threads.
Starting static elaboration
Pass Through NonSizing Optimizer
Completed static elaboration
Starting simulation data flow analysis
Completed simulation data flow analysis
Time Resolution for simulation is 1ps
Compiling package work.pcie_axi_pkg
Compiling module work.pcie_model(DATA_WIDTH=64,PKT_SIZ...
Compiling module work.dma_model(DATA_WIDTH=64,PKT_SIZE...
Compiling module work.axi_mm2s_adapter(DATA_WIDTH=64,P...
Compiling module work.axis_fifo(DATA_WIDTH=64,PKT_SIZE...
Compiling module work.batching_unit(DATA_WIDTH=64,PKT_...
Compiling module work.stream_sink(DATA_WIDTH=64,PKT_SI...
Compiling module work.latency_monitor(PKT_ID_W=8,PKT_S...
Compiling module work.pcie_axi_dma_top(DATA_WIDTH=64,P...
Compiling module work.tb_pcie_axi_dma(TB_SCENARIO=2,FI...
Built simulation snapshot tb_pcie_axi_dma_snap
touch /get/work/krishna.vardhan/git_trees/mtp_pcie_axi/pcie_axi_dma_latency/build_kv_scenario2_stall_fifo64/.elaborated
cd /get/work/krishna.vardhan/git_trees/mtp_pcie_axi/pcie_axi_dma_latency/build_kv_scenario2_stall_fifo64 && \
xsim tb_pcie_axi_dma_snap \
    --runall \
    --log xsim_batch.log

****** xsim v2022.2 (64-bit)
  **** SW Build 3671981 on Fri Oct 14 04:59:54 MDT 2022
  **** IP Build 3669848 on Fri Oct 14 08:30:02 MDT 2022
    ** Copyright 1986-2022 Xilinx, Inc. All Rights Reserved.

source xsim.dir/tb_pcie_axi_dma_snap/xsim_script.tcl
# xsim {tb_pcie_axi_dma_snap} -autoloadwcfg -runall
Time resolution is 1 ps
run -all
[batching_unit] Bypass mode (enable=0)

[RESULT] ================================================================
[RESULT]  PCIe-AXI DMA Latency Simulation  |  Config: BASELINE,FIFO=64,STALL=1/4
[RESULT] ================================================================
[RESULT]  PKT_ID | SIZE (B) | LATENCY (cyc) | EFFICIENCY (B/cyc) | FIFO_PEAK | FULL?
[RESULT] ----------------------------------------------------------------
[dma_model] t=775000  pkt_id=0  descriptor setup done  (SETUP_CYCLES=8)
[sink]  t=1095000  pkt_id=0  size=64B  count=1
[latmon] pkt_id=0  size=  64B  latency=   94 cyc  eff= 0.68 B/cyc
[latmon]  ↳ est: PCIe=44  DMA=24  other=26  total_measured=94
[RESULT]       0 |       64 |            94 |               0.68 |         6 |    no | BASELINE,FIFO=64,STALL=1/4
[dma_model] t=2145000  pkt_id=1  descriptor setup done  (SETUP_CYCLES=8)
[sink]  t=2775000  pkt_id=1  size=128B  count=2
[latmon] pkt_id=1  size= 128B  latency=  157 cyc  eff= 0.82 B/cyc
[latmon]  ↳ est: PCIe=68  DMA=40  other=49  total_measured=157
[RESULT]       1 |      128 |           157 |               0.82 |        12 |    no | BASELINE,FIFO=64,STALL=1/4
[dma_model] t=4465000  pkt_id=2  descriptor setup done  (SETUP_CYCLES=8)
[sink]  t=5735000  pkt_id=2  size=256B  count=3
[latmon] pkt_id=2  size= 256B  latency=  285 cyc  eff= 0.90 B/cyc
[latmon]  ↳ est: PCIe=116  DMA=72  other=97  total_measured=285
[RESULT]       2 |      256 |           285 |               0.90 |        24 |    no | BASELINE,FIFO=64,STALL=1/4
[dma_model] t=8705000  pkt_id=3  descriptor setup done  (SETUP_CYCLES=8)
[sink]  t=11255000  pkt_id=3  size=512B  count=4
[latmon] pkt_id=3  size= 512B  latency=  541 cyc  eff= 0.95 B/cyc
[latmon]  ↳ est: PCIe=212  DMA=136  other=193  total_measured=541
[RESULT]       3 |      512 |           541 |               0.95 |        48 |    no | BASELINE,FIFO=64,STALL=1/4
[dma_model] t=16785000  pkt_id=4  descriptor setup done  (SETUP_CYCLES=8)
Warning: [axis_fifo] FIFO full (depth=64) — upstream back-pressured at t=17645000
Time: 17645 ns  Iteration: 0  Process: /tb_pcie_axi_dma(TB_SCENARIO=2,FIFO_DEPTH=64,BATCH_COUNT=4,BATCH_TIMEOUT=64,SINK_STALL_EN=1'b1,SINK_STALL_PERIOD=4,SINK_STALL_READY=1)/dut/u_fifo/Always163_9  Scope: \tb_pcie_axi_dma(TB_SCENARIO=2,FIFO_DEPTH=64,BATCH_COUNT=4,BATCH_TIMEOUT=64,SINK_STALL_EN=1'b1,SINK_STALL_PERIOD=4,SINK_STALL_READY=1) .dut.u_fifo  File: /get/work/krishna.vardhan/git_trees/mtp_pcie_axi/pcie_axi_dma_latency/design/rtl/axis_fifo.sv Line: 165
Warning: [axis_fifo] FIFO full (depth=64) — upstream back-pressured at t=17655000
Time: 17655 ns  Iteration: 0  Process: /tb_pcie_axi_dma(TB_SCENARIO=2,FIFO_DEPTH=64,BATCH_COUNT=4,BATCH_TIMEOUT=64,SINK_STALL_EN=1'b1,SINK_STALL_PERIOD=4,SINK_STALL_READY=1)/dut/u_fifo/Always163_9  Scope: \tb_pcie_axi_dma(TB_SCENARIO=2,FIFO_DEPTH=64,BATCH_COUNT=4,BATCH_TIMEOUT=64,SINK_STALL_EN=1'b1,SINK_STALL_PERIOD=4,SINK_STALL_READY=1) .dut.u_fifo  File: /get/work/krishna.vardhan/git_trees/mtp_pcie_axi/pcie_axi_dma_latency/design/rtl/axis_fifo.sv Line: 165
Warning: [axis_fifo] FIFO full (depth=64) — upstream back-pressured at t=17675000
Time: 17675 ns  Iteration: 0  Process: /tb_pcie_axi_dma(TB_SCENARIO=2,FIFO_DEPTH=64,BATCH_COUNT=4,BATCH_TIMEOUT=64,SINK_STALL_EN=1'b1,SINK_STALL_PERIOD=4,SINK_STALL_READY=1)/dut/u_fifo/Always163_9  Scope: \tb_pcie_axi_dma(TB_SCENARIO=2,FIFO_DEPTH=64,BATCH_COUNT=4,BATCH_TIMEOUT=64,SINK_STALL_EN=1'b1,SINK_STALL_PERIOD=4,SINK_STALL_READY=1) .dut.u_fifo  File: /get/work/krishna.vardhan/git_trees/mtp_pcie_axi/pcie_axi_dma_latency/design/rtl/axis_fifo.sv Line: 165
Warning: [axis_fifo] FIFO full (depth=64) — upstream back-pressured at t=17685000
Time: 17685 ns  Iteration: 0  Process: /tb_pcie_axi_dma(TB_SCENARIO=2,FIFO_DEPTH=64,BATCH_COUNT=4,BATCH_TIMEOUT=64,SINK_STALL_EN=1'b1,SINK_STALL_PERIOD=4,SINK_STALL_READY=1)/dut/u_fifo/Always163_9  Scope: \tb_pcie_axi_dma(TB_SCENARIO=2,FIFO_DEPTH=64,BATCH_COUNT=4,BATCH_TIMEOUT=64,SINK_STALL_EN=1'b1,SINK_STALL_PERIOD=4,SINK_STALL_READY=1) .dut.u_fifo  File: /get/work/krishna.vardhan/git_trees/mtp_pcie_axi/pcie_axi_dma_latency/design/rtl/axis_fifo.sv Line: 165
Warning: [axis_fifo] FIFO full (depth=64) — upstream back-pressured at t=17695000
Time: 17695 ns  Iteration: 0  Process: /tb_pcie_axi_dma(TB_SCENARIO=2,FIFO_DEPTH=64,BATCH_COUNT=4,BATCH_TIMEOUT=64,SINK_STALL_EN=1'b1,SINK_STALL_PERIOD=4,SINK_STALL_READY=1)/dut/u_fifo/Always163_9  Scope: \tb_pcie_axi_dma(TB_SCENARIO=2,FIFO_DEPTH=64,BATCH_COUNT=4,BATCH_TIMEOUT=64,SINK_STALL_EN=1'b1,SINK_STALL_PERIOD=4,SINK_STALL_READY=1) .dut.u_fifo  File: /get/work/krishna.vardhan/git_trees/mtp_pcie_axi/pcie_axi_dma_latency/design/rtl/axis_fifo.sv Line: 165
Warning: [axis_fifo] FIFO full (depth=64) — upstream back-pressured at t=17715000
Time: 17715 ns  Iteration: 0  Process: /tb_pcie_axi_dma(TB_SCENARIO=2,FIFO_DEPTH=64,BATCH_COUNT=4,BATCH_TIMEOUT=64,SINK_STALL_EN=1'b1,SINK_STALL_PERIOD=4,SINK_STALL_READY=1)/dut/u_fifo/Always163_9  Scope: \tb_pcie_axi_dma(TB_SCENARIO=2,FIFO_DEPTH=64,BATCH_COUNT=4,BATCH_TIMEOUT=64,SINK_STALL_EN=1'b1,SINK_STALL_PERIOD=4,SINK_STALL_READY=1) .dut.u_fifo  File: /get/work/krishna.vardhan/git_trees/mtp_pcie_axi/pcie_axi_dma_latency/design/rtl/axis_fifo.sv Line: 165
Warning: [axis_fifo] FIFO full (depth=64) — upstream back-pressured at t=17725000
Time: 17725 ns  Iteration: 0  Process: /tb_pcie_axi_dma(TB_SCENARIO=2,FIFO_DEPTH=64,BATCH_COUNT=4,BATCH_TIMEOUT=64,SINK_STALL_EN=1'b1,SINK_STALL_PERIOD=4,SINK_STALL_READY=1)/dut/u_fifo/Always163_9  Scope: \tb_pcie_axi_dma(TB_SCENARIO=2,FIFO_DEPTH=64,BATCH_COUNT=4,BATCH_TIMEOUT=64,SINK_STALL_EN=1'b1,SINK_STALL_PERIOD=4,SINK_STALL_READY=1) .dut.u_fifo  File: /get/work/krishna.vardhan/git_trees/mtp_pcie_axi/pcie_axi_dma_latency/design/rtl/axis_fifo.sv Line: 165
Warning: [axis_fifo] FIFO full (depth=64) — upstream back-pressured at t=17735000
Time: 17735 ns  Iteration: 0  Process: /tb_pcie_axi_dma(TB_SCENARIO=2,FIFO_DEPTH=64,BATCH_COUNT=4,BATCH_TIMEOUT=64,SINK_STALL_EN=1'b1,SINK_STALL_PERIOD=4,SINK_STALL_READY=1)/dut/u_fifo/Always163_9  Scope: \tb_pcie_axi_dma(TB_SCENARIO=2,FIFO_DEPTH=64,BATCH_COUNT=4,BATCH_TIMEOUT=64,SINK_STALL_EN=1'b1,SINK_STALL_PERIOD=4,SINK_STALL_READY=1) .dut.u_fifo  File: /get/work/krishna.vardhan/git_trees/mtp_pcie_axi/pcie_axi_dma_latency/design/rtl/axis_fifo.sv Line: 165
Warning: [axis_fifo] FIFO full (depth=64) — upstream back-pressured at t=17755000
Time: 17755 ns  Iteration: 0  Process: /tb_pcie_axi_dma(TB_SCENARIO=2,FIFO_DEPTH=64,BATCH_COUNT=4,BATCH_TIMEOUT=64,SINK_STALL_EN=1'b1,SINK_STALL_PERIOD=4,SINK_STALL_READY=1)/dut/u_fifo/Always163_9  Scope: \tb_pcie_axi_dma(TB_SCENARIO=2,FIFO_DEPTH=64,BATCH_COUNT=4,BATCH_TIMEOUT=64,SINK_STALL_EN=1'b1,SINK_STALL_PERIOD=4,SINK_STALL_READY=1) .dut.u_fifo  File: /get/work/krishna.vardhan/git_trees/mtp_pcie_axi/pcie_axi_dma_latency/design/rtl/axis_fifo.sv Line: 165
Warning: [axis_fifo] FIFO full (depth=64) — upstream back-pressured at t=17765000
Time: 17765 ns  Iteration: 0  Process: /tb_pcie_axi_dma(TB_SCENARIO=2,FIFO_DEPTH=64,BATCH_COUNT=4,BATCH_TIMEOUT=64,SINK_STALL_EN=1'b1,SINK_STALL_PERIOD=4,SINK_STALL_READY=1)/dut/u_fifo/Always163_9  Scope: \tb_pcie_axi_dma(TB_SCENARIO=2,FIFO_DEPTH=64,BATCH_COUNT=4,BATCH_TIMEOUT=64,SINK_STALL_EN=1'b1,SINK_STALL_PERIOD=4,SINK_STALL_READY=1) .dut.u_fifo  File: /get/work/krishna.vardhan/git_trees/mtp_pcie_axi/pcie_axi_dma_latency/design/rtl/axis_fifo.sv Line: 165
Warning: [axis_fifo] FIFO full (depth=64) — upstream back-pressured at t=17775000
Time: 17775 ns  Iteration: 0  Process: /tb_pcie_axi_dma(TB_SCENARIO=2,FIFO_DEPTH=64,BATCH_COUNT=4,BATCH_TIMEOUT=64,SINK_STALL_EN=1'b1,SINK_STALL_PERIOD=4,SINK_STALL_READY=1)/dut/u_fifo/Always163_9  Scope: \tb_pcie_axi_dma(TB_SCENARIO=2,FIFO_DEPTH=64,BATCH_COUNT=4,BATCH_TIMEOUT=64,SINK_STALL_EN=1'b1,SINK_STALL_PERIOD=4,SINK_STALL_READY=1) .dut.u_fifo  File: /get/work/krishna.vardhan/git_trees/mtp_pcie_axi/pcie_axi_dma_latency/design/rtl/axis_fifo.sv Line: 165
Warning: [axis_fifo] FIFO full (depth=64) — upstream back-pressured at t=17795000
Time: 17795 ns  Iteration: 0  Process: /tb_pcie_axi_dma(TB_SCENARIO=2,FIFO_DEPTH=64,BATCH_COUNT=4,BATCH_TIMEOUT=64,SINK_STALL_EN=1'b1,SINK_STALL_PERIOD=4,SINK_STALL_READY=1)/dut/u_fifo/Always163_9  Scope: \tb_pcie_axi_dma(TB_SCENARIO=2,FIFO_DEPTH=64,BATCH_COUNT=4,BATCH_TIMEOUT=64,SINK_STALL_EN=1'b1,SINK_STALL_PERIOD=4,SINK_STALL_READY=1) .dut.u_fifo  File: /get/work/krishna.vardhan/git_trees/mtp_pcie_axi/pcie_axi_dma_latency/design/rtl/axis_fifo.sv Line: 165
Warning: [axis_fifo] FIFO full (depth=64) — upstream back-pressured at t=17805000
Time: 17805 ns  Iteration: 0  Process: /tb_pcie_axi_dma(TB_SCENARIO=2,FIFO_DEPTH=64,BATCH_COUNT=4,BATCH_TIMEOUT=64,SINK_STALL_EN=1'b1,SINK_STALL_PERIOD=4,SINK_STALL_READY=1)/dut/u_fifo/Always163_9  Scope: \tb_pcie_axi_dma(TB_SCENARIO=2,FIFO_DEPTH=64,BATCH_COUNT=4,BATCH_TIMEOUT=64,SINK_STALL_EN=1'b1,SINK_STALL_PERIOD=4,SINK_STALL_READY=1) .dut.u_fifo  File: /get/work/krishna.vardhan/git_trees/mtp_pcie_axi/pcie_axi_dma_latency/design/rtl/axis_fifo.sv Line: 165
Warning: [axis_fifo] FIFO full (depth=64) — upstream back-pressured at t=17815000
Time: 17815 ns  Iteration: 0  Process: /tb_pcie_axi_dma(TB_SCENARIO=2,FIFO_DEPTH=64,BATCH_COUNT=4,BATCH_TIMEOUT=64,SINK_STALL_EN=1'b1,SINK_STALL_PERIOD=4,SINK_STALL_READY=1)/dut/u_fifo/Always163_9  Scope: \tb_pcie_axi_dma(TB_SCENARIO=2,FIFO_DEPTH=64,BATCH_COUNT=4,BATCH_TIMEOUT=64,SINK_STALL_EN=1'b1,SINK_STALL_PERIOD=4,SINK_STALL_READY=1) .dut.u_fifo  File: /get/work/krishna.vardhan/git_trees/mtp_pcie_axi/pcie_axi_dma_latency/design/rtl/axis_fifo.sv Line: 165
Warning: [axis_fifo] FIFO full (depth=64) — upstream back-pressured at t=17835000
Time: 17835 ns  Iteration: 0  Process: /tb_pcie_axi_dma(TB_SCENARIO=2,FIFO_DEPTH=64,BATCH_COUNT=4,BATCH_TIMEOUT=64,SINK_STALL_EN=1'b1,SINK_STALL_PERIOD=4,SINK_STALL_READY=1)/dut/u_fifo/Always163_9  Scope: \tb_pcie_axi_dma(TB_SCENARIO=2,FIFO_DEPTH=64,BATCH_COUNT=4,BATCH_TIMEOUT=64,SINK_STALL_EN=1'b1,SINK_STALL_PERIOD=4,SINK_STALL_READY=1) .dut.u_fifo  File: /get/work/krishna.vardhan/git_trees/mtp_pcie_axi/pcie_axi_dma_latency/design/rtl/axis_fifo.sv Line: 165
Warning: [axis_fifo] FIFO full (depth=64) — upstream back-pressured at t=17845000
Time: 17845 ns  Iteration: 0  Process: /tb_pcie_axi_dma(TB_SCENARIO=2,FIFO_DEPTH=64,BATCH_COUNT=4,BATCH_TIMEOUT=64,SINK_STALL_EN=1'b1,SINK_STALL_PERIOD=4,SINK_STALL_READY=1)/dut/u_fifo/Always163_9  Scope: \tb_pcie_axi_dma(TB_SCENARIO=2,FIFO_DEPTH=64,BATCH_COUNT=4,BATCH_TIMEOUT=64,SINK_STALL_EN=1'b1,SINK_STALL_PERIOD=4,SINK_STALL_READY=1) .dut.u_fifo  File: /get/work/krishna.vardhan/git_trees/mtp_pcie_axi/pcie_axi_dma_latency/design/rtl/axis_fifo.sv Line: 165
Warning: [axis_fifo] FIFO full (depth=64) — upstream back-pressured at t=17855000
Time: 17855 ns  Iteration: 0  Process: /tb_pcie_axi_dma(TB_SCENARIO=2,FIFO_DEPTH=64,BATCH_COUNT=4,BATCH_TIMEOUT=64,SINK_STALL_EN=1'b1,SINK_STALL_PERIOD=4,SINK_STALL_READY=1)/dut/u_fifo/Always163_9  Scope: \tb_pcie_axi_dma(TB_SCENARIO=2,FIFO_DEPTH=64,BATCH_COUNT=4,BATCH_TIMEOUT=64,SINK_STALL_EN=1'b1,SINK_STALL_PERIOD=4,SINK_STALL_READY=1) .dut.u_fifo  File: /get/work/krishna.vardhan/git_trees/mtp_pcie_axi/pcie_axi_dma_latency/design/rtl/axis_fifo.sv Line: 165
Warning: [axis_fifo] FIFO full (depth=64) — upstream back-pressured at t=17875000
Time: 17875 ns  Iteration: 0  Process: /tb_pcie_axi_dma(TB_SCENARIO=2,FIFO_DEPTH=64,BATCH_COUNT=4,BATCH_TIMEOUT=64,SINK_STALL_EN=1'b1,SINK_STALL_PERIOD=4,SINK_STALL_READY=1)/dut/u_fifo/Always163_9  Scope: \tb_pcie_axi_dma(TB_SCENARIO=2,FIFO_DEPTH=64,BATCH_COUNT=4,BATCH_TIMEOUT=64,SINK_STALL_EN=1'b1,SINK_STALL_PERIOD=4,SINK_STALL_READY=1) .dut.u_fifo  File: /get/work/krishna.vardhan/git_trees/mtp_pcie_axi/pcie_axi_dma_latency/design/rtl/axis_fifo.sv Line: 165
Warning: [axis_fifo] FIFO full (depth=64) — upstream back-pressured at t=17885000
Time: 17885 ns  Iteration: 0  Process: /tb_pcie_axi_dma(TB_SCENARIO=2,FIFO_DEPTH=64,BATCH_COUNT=4,BATCH_TIMEOUT=64,SINK_STALL_EN=1'b1,SINK_STALL_PERIOD=4,SINK_STALL_READY=1)/dut/u_fifo/Always163_9  Scope: \tb_pcie_axi_dma(TB_SCENARIO=2,FIFO_DEPTH=64,BATCH_COUNT=4,BATCH_TIMEOUT=64,SINK_STALL_EN=1'b1,SINK_STALL_PERIOD=4,SINK_STALL_READY=1) .dut.u_fifo  File: /get/work/krishna.vardhan/git_trees/mtp_pcie_axi/pcie_axi_dma_latency/design/rtl/axis_fifo.sv Line: 165
Warning: [axis_fifo] FIFO full (depth=64) — upstream back-pressured at t=17895000
Time: 17895 ns  Iteration: 0  Process: /tb_pcie_axi_dma(TB_SCENARIO=2,FIFO_DEPTH=64,BATCH_COUNT=4,BATCH_TIMEOUT=64,SINK_STALL_EN=1'b1,SINK_STALL_PERIOD=4,SINK_STALL_READY=1)/dut/u_fifo/Always163_9  Scope: \tb_pcie_axi_dma(TB_SCENARIO=2,FIFO_DEPTH=64,BATCH_COUNT=4,BATCH_TIMEOUT=64,SINK_STALL_EN=1'b1,SINK_STALL_PERIOD=4,SINK_STALL_READY=1) .dut.u_fifo  File: /get/work/krishna.vardhan/git_trees/mtp_pcie_axi/pcie_axi_dma_latency/design/rtl/axis_fifo.sv Line: 165
Warning: [axis_fifo] FIFO full (depth=64) — upstream back-pressured at t=17915000
Time: 17915 ns  Iteration: 0  Process: /tb_pcie_axi_dma(TB_SCENARIO=2,FIFO_DEPTH=64,BATCH_COUNT=4,BATCH_TIMEOUT=64,SINK_STALL_EN=1'b1,SINK_STALL_PERIOD=4,SINK_STALL_READY=1)/dut/u_fifo/Always163_9  Scope: \tb_pcie_axi_dma(TB_SCENARIO=2,FIFO_DEPTH=64,BATCH_COUNT=4,BATCH_TIMEOUT=64,SINK_STALL_EN=1'b1,SINK_STALL_PERIOD=4,SINK_STALL_READY=1) .dut.u_fifo  File: /get/work/krishna.vardhan/git_trees/mtp_pcie_axi/pcie_axi_dma_latency/design/rtl/axis_fifo.sv Line: 165
Warning: [axis_fifo] FIFO full (depth=64) — upstream back-pressured at t=17925000
Time: 17925 ns  Iteration: 0  Process: /tb_pcie_axi_dma(TB_SCENARIO=2,FIFO_DEPTH=64,BATCH_COUNT=4,BATCH_TIMEOUT=64,SINK_STALL_EN=1'b1,SINK_STALL_PERIOD=4,SINK_STALL_READY=1)/dut/u_fifo/Always163_9  Scope: \tb_pcie_axi_dma(TB_SCENARIO=2,FIFO_DEPTH=64,BATCH_COUNT=4,BATCH_TIMEOUT=64,SINK_STALL_EN=1'b1,SINK_STALL_PERIOD=4,SINK_STALL_READY=1) .dut.u_fifo  File: /get/work/krishna.vardhan/git_trees/mtp_pcie_axi/pcie_axi_dma_latency/design/rtl/axis_fifo.sv Line: 165
Warning: [axis_fifo] FIFO full (depth=64) — upstream back-pressured at t=17935000
Time: 17935 ns  Iteration: 0  Process: /tb_pcie_axi_dma(TB_SCENARIO=2,FIFO_DEPTH=64,BATCH_COUNT=4,BATCH_TIMEOUT=64,SINK_STALL_EN=1'b1,SINK_STALL_PERIOD=4,SINK_STALL_READY=1)/dut/u_fifo/Always163_9  Scope: \tb_pcie_axi_dma(TB_SCENARIO=2,FIFO_DEPTH=64,BATCH_COUNT=4,BATCH_TIMEOUT=64,SINK_STALL_EN=1'b1,SINK_STALL_PERIOD=4,SINK_STALL_READY=1) .dut.u_fifo  File: /get/work/krishna.vardhan/git_trees/mtp_pcie_axi/pcie_axi_dma_latency/design/rtl/axis_fifo.sv Line: 165
Warning: [axis_fifo] FIFO full (depth=64) — upstream back-pressured at t=17955000
Time: 17955 ns  Iteration: 0  Process: /tb_pcie_axi_dma(TB_SCENARIO=2,FIFO_DEPTH=64,BATCH_COUNT=4,BATCH_TIMEOUT=64,SINK_STALL_EN=1'b1,SINK_STALL_PERIOD=4,SINK_STALL_READY=1)/dut/u_fifo/Always163_9  Scope: \tb_pcie_axi_dma(TB_SCENARIO=2,FIFO_DEPTH=64,BATCH_COUNT=4,BATCH_TIMEOUT=64,SINK_STALL_EN=1'b1,SINK_STALL_PERIOD=4,SINK_STALL_READY=1) .dut.u_fifo  File: /get/work/krishna.vardhan/git_trees/mtp_pcie_axi/pcie_axi_dma_latency/design/rtl/axis_fifo.sv Line: 165
Warning: [axis_fifo] FIFO full (depth=64) — upstream back-pressured at t=17965000
Time: 17965 ns  Iteration: 0  Process: /tb_pcie_axi_dma(TB_SCENARIO=2,FIFO_DEPTH=64,BATCH_COUNT=4,BATCH_TIMEOUT=64,SINK_STALL_EN=1'b1,SINK_STALL_PERIOD=4,SINK_STALL_READY=1)/dut/u_fifo/Always163_9  Scope: \tb_pcie_axi_dma(TB_SCENARIO=2,FIFO_DEPTH=64,BATCH_COUNT=4,BATCH_TIMEOUT=64,SINK_STALL_EN=1'b1,SINK_STALL_PERIOD=4,SINK_STALL_READY=1) .dut.u_fifo  File: /get/work/krishna.vardhan/git_trees/mtp_pcie_axi/pcie_axi_dma_latency/design/rtl/axis_fifo.sv Line: 165
Warning: [axis_fifo] FIFO full (depth=64) — upstream back-pressured at t=17975000
Time: 17975 ns  Iteration: 0  Process: /tb_pcie_axi_dma(TB_SCENARIO=2,FIFO_DEPTH=64,BATCH_COUNT=4,BATCH_TIMEOUT=64,SINK_STALL_EN=1'b1,SINK_STALL_PERIOD=4,SINK_STALL_READY=1)/dut/u_fifo/Always163_9  Scope: \tb_pcie_axi_dma(TB_SCENARIO=2,FIFO_DEPTH=64,BATCH_COUNT=4,BATCH_TIMEOUT=64,SINK_STALL_EN=1'b1,SINK_STALL_PERIOD=4,SINK_STALL_READY=1) .dut.u_fifo  File: /get/work/krishna.vardhan/git_trees/mtp_pcie_axi/pcie_axi_dma_latency/design/rtl/axis_fifo.sv Line: 165
Warning: [axis_fifo] FIFO full (depth=64) — upstream back-pressured at t=17995000
Time: 17995 ns  Iteration: 0  Process: /tb_pcie_axi_dma(TB_SCENARIO=2,FIFO_DEPTH=64,BATCH_COUNT=4,BATCH_TIMEOUT=64,SINK_STALL_EN=1'b1,SINK_STALL_PERIOD=4,SINK_STALL_READY=1)/dut/u_fifo/Always163_9  Scope: \tb_pcie_axi_dma(TB_SCENARIO=2,FIFO_DEPTH=64,BATCH_COUNT=4,BATCH_TIMEOUT=64,SINK_STALL_EN=1'b1,SINK_STALL_PERIOD=4,SINK_STALL_READY=1) .dut.u_fifo  File: /get/work/krishna.vardhan/git_trees/mtp_pcie_axi/pcie_axi_dma_latency/design/rtl/axis_fifo.sv Line: 165
Warning: [axis_fifo] FIFO full (depth=64) — upstream back-pressured at t=18005000
Time: 18005 ns  Iteration: 0  Process: /tb_pcie_axi_dma(TB_SCENARIO=2,FIFO_DEPTH=64,BATCH_COUNT=4,BATCH_TIMEOUT=64,SINK_STALL_EN=1'b1,SINK_STALL_PERIOD=4,SINK_STALL_READY=1)/dut/u_fifo/Always163_9  Scope: \tb_pcie_axi_dma(TB_SCENARIO=2,FIFO_DEPTH=64,BATCH_COUNT=4,BATCH_TIMEOUT=64,SINK_STALL_EN=1'b1,SINK_STALL_PERIOD=4,SINK_STALL_READY=1) .dut.u_fifo  File: /get/work/krishna.vardhan/git_trees/mtp_pcie_axi/pcie_axi_dma_latency/design/rtl/axis_fifo.sv Line: 165
Warning: [axis_fifo] FIFO full (depth=64) — upstream back-pressured at t=18015000
Time: 18015 ns  Iteration: 0  Process: /tb_pcie_axi_dma(TB_SCENARIO=2,FIFO_DEPTH=64,BATCH_COUNT=4,BATCH_TIMEOUT=64,SINK_STALL_EN=1'b1,SINK_STALL_PERIOD=4,SINK_STALL_READY=1)/dut/u_fifo/Always163_9  Scope: \tb_pcie_axi_dma(TB_SCENARIO=2,FIFO_DEPTH=64,BATCH_COUNT=4,BATCH_TIMEOUT=64,SINK_STALL_EN=1'b1,SINK_STALL_PERIOD=4,SINK_STALL_READY=1) .dut.u_fifo  File: /get/work/krishna.vardhan/git_trees/mtp_pcie_axi/pcie_axi_dma_latency/design/rtl/axis_fifo.sv Line: 165
Warning: [axis_fifo] FIFO full (depth=64) — upstream back-pressured at t=18035000
Time: 18035 ns  Iteration: 0  Process: /tb_pcie_axi_dma(TB_SCENARIO=2,FIFO_DEPTH=64,BATCH_COUNT=4,BATCH_TIMEOUT=64,SINK_STALL_EN=1'b1,SINK_STALL_PERIOD=4,SINK_STALL_READY=1)/dut/u_fifo/Always163_9  Scope: \tb_pcie_axi_dma(TB_SCENARIO=2,FIFO_DEPTH=64,BATCH_COUNT=4,BATCH_TIMEOUT=64,SINK_STALL_EN=1'b1,SINK_STALL_PERIOD=4,SINK_STALL_READY=1) .dut.u_fifo  File: /get/work/krishna.vardhan/git_trees/mtp_pcie_axi/pcie_axi_dma_latency/design/rtl/axis_fifo.sv Line: 165
Warning: [axis_fifo] FIFO full (depth=64) — upstream back-pressured at t=18045000
Time: 18045 ns  Iteration: 0  Process: /tb_pcie_axi_dma(TB_SCENARIO=2,FIFO_DEPTH=64,BATCH_COUNT=4,BATCH_TIMEOUT=64,SINK_STALL_EN=1'b1,SINK_STALL_PERIOD=4,SINK_STALL_READY=1)/dut/u_fifo/Always163_9  Scope: \tb_pcie_axi_dma(TB_SCENARIO=2,FIFO_DEPTH=64,BATCH_COUNT=4,BATCH_TIMEOUT=64,SINK_STALL_EN=1'b1,SINK_STALL_PERIOD=4,SINK_STALL_READY=1) .dut.u_fifo  File: /get/work/krishna.vardhan/git_trees/mtp_pcie_axi/pcie_axi_dma_latency/design/rtl/axis_fifo.sv Line: 165
Warning: [axis_fifo] FIFO full (depth=64) — upstream back-pressured at t=18055000
Time: 18055 ns  Iteration: 0  Process: /tb_pcie_axi_dma(TB_SCENARIO=2,FIFO_DEPTH=64,BATCH_COUNT=4,BATCH_TIMEOUT=64,SINK_STALL_EN=1'b1,SINK_STALL_PERIOD=4,SINK_STALL_READY=1)/dut/u_fifo/Always163_9  Scope: \tb_pcie_axi_dma(TB_SCENARIO=2,FIFO_DEPTH=64,BATCH_COUNT=4,BATCH_TIMEOUT=64,SINK_STALL_EN=1'b1,SINK_STALL_PERIOD=4,SINK_STALL_READY=1) .dut.u_fifo  File: /get/work/krishna.vardhan/git_trees/mtp_pcie_axi/pcie_axi_dma_latency/design/rtl/axis_fifo.sv Line: 165
Warning: [axis_fifo] FIFO full (depth=64) — upstream back-pressured at t=18075000
Time: 18075 ns  Iteration: 0  Process: /tb_pcie_axi_dma(TB_SCENARIO=2,FIFO_DEPTH=64,BATCH_COUNT=4,BATCH_TIMEOUT=64,SINK_STALL_EN=1'b1,SINK_STALL_PERIOD=4,SINK_STALL_READY=1)/dut/u_fifo/Always163_9  Scope: \tb_pcie_axi_dma(TB_SCENARIO=2,FIFO_DEPTH=64,BATCH_COUNT=4,BATCH_TIMEOUT=64,SINK_STALL_EN=1'b1,SINK_STALL_PERIOD=4,SINK_STALL_READY=1) .dut.u_fifo  File: /get/work/krishna.vardhan/git_trees/mtp_pcie_axi/pcie_axi_dma_latency/design/rtl/axis_fifo.sv Line: 165
Warning: [axis_fifo] FIFO full (depth=64) — upstream back-pressured at t=18085000
Time: 18085 ns  Iteration: 0  Process: /tb_pcie_axi_dma(TB_SCENARIO=2,FIFO_DEPTH=64,BATCH_COUNT=4,BATCH_TIMEOUT=64,SINK_STALL_EN=1'b1,SINK_STALL_PERIOD=4,SINK_STALL_READY=1)/dut/u_fifo/Always163_9  Scope: \tb_pcie_axi_dma(TB_SCENARIO=2,FIFO_DEPTH=64,BATCH_COUNT=4,BATCH_TIMEOUT=64,SINK_STALL_EN=1'b1,SINK_STALL_PERIOD=4,SINK_STALL_READY=1) .dut.u_fifo  File: /get/work/krishna.vardhan/git_trees/mtp_pcie_axi/pcie_axi_dma_latency/design/rtl/axis_fifo.sv Line: 165
Warning: [axis_fifo] FIFO full (depth=64) — upstream back-pressured at t=18095000
Time: 18095 ns  Iteration: 0  Process: /tb_pcie_axi_dma(TB_SCENARIO=2,FIFO_DEPTH=64,BATCH_COUNT=4,BATCH_TIMEOUT=64,SINK_STALL_EN=1'b1,SINK_STALL_PERIOD=4,SINK_STALL_READY=1)/dut/u_fifo/Always163_9  Scope: \tb_pcie_axi_dma(TB_SCENARIO=2,FIFO_DEPTH=64,BATCH_COUNT=4,BATCH_TIMEOUT=64,SINK_STALL_EN=1'b1,SINK_STALL_PERIOD=4,SINK_STALL_READY=1) .dut.u_fifo  File: /get/work/krishna.vardhan/git_trees/mtp_pcie_axi/pcie_axi_dma_latency/design/rtl/axis_fifo.sv Line: 165
Warning: [axis_fifo] FIFO full (depth=64) — upstream back-pressured at t=18115000
Time: 18115 ns  Iteration: 0  Process: /tb_pcie_axi_dma(TB_SCENARIO=2,FIFO_DEPTH=64,BATCH_COUNT=4,BATCH_TIMEOUT=64,SINK_STALL_EN=1'b1,SINK_STALL_PERIOD=4,SINK_STALL_READY=1)/dut/u_fifo/Always163_9  Scope: \tb_pcie_axi_dma(TB_SCENARIO=2,FIFO_DEPTH=64,BATCH_COUNT=4,BATCH_TIMEOUT=64,SINK_STALL_EN=1'b1,SINK_STALL_PERIOD=4,SINK_STALL_READY=1) .dut.u_fifo  File: /get/work/krishna.vardhan/git_trees/mtp_pcie_axi/pcie_axi_dma_latency/design/rtl/axis_fifo.sv Line: 165
Warning: [axis_fifo] FIFO full (depth=64) — upstream back-pressured at t=18125000
Time: 18125 ns  Iteration: 0  Process: /tb_pcie_axi_dma(TB_SCENARIO=2,FIFO_DEPTH=64,BATCH_COUNT=4,BATCH_TIMEOUT=64,SINK_STALL_EN=1'b1,SINK_STALL_PERIOD=4,SINK_STALL_READY=1)/dut/u_fifo/Always163_9  Scope: \tb_pcie_axi_dma(TB_SCENARIO=2,FIFO_DEPTH=64,BATCH_COUNT=4,BATCH_TIMEOUT=64,SINK_STALL_EN=1'b1,SINK_STALL_PERIOD=4,SINK_STALL_READY=1) .dut.u_fifo  File: /get/work/krishna.vardhan/git_trees/mtp_pcie_axi/pcie_axi_dma_latency/design/rtl/axis_fifo.sv Line: 165
Warning: [axis_fifo] FIFO full (depth=64) — upstream back-pressured at t=18135000
Time: 18135 ns  Iteration: 0  Process: /tb_pcie_axi_dma(TB_SCENARIO=2,FIFO_DEPTH=64,BATCH_COUNT=4,BATCH_TIMEOUT=64,SINK_STALL_EN=1'b1,SINK_STALL_PERIOD=4,SINK_STALL_READY=1)/dut/u_fifo/Always163_9  Scope: \tb_pcie_axi_dma(TB_SCENARIO=2,FIFO_DEPTH=64,BATCH_COUNT=4,BATCH_TIMEOUT=64,SINK_STALL_EN=1'b1,SINK_STALL_PERIOD=4,SINK_STALL_READY=1) .dut.u_fifo  File: /get/work/krishna.vardhan/git_trees/mtp_pcie_axi/pcie_axi_dma_latency/design/rtl/axis_fifo.sv Line: 165
Warning: [axis_fifo] FIFO full (depth=64) — upstream back-pressured at t=18155000
Time: 18155 ns  Iteration: 0  Process: /tb_pcie_axi_dma(TB_SCENARIO=2,FIFO_DEPTH=64,BATCH_COUNT=4,BATCH_TIMEOUT=64,SINK_STALL_EN=1'b1,SINK_STALL_PERIOD=4,SINK_STALL_READY=1)/dut/u_fifo/Always163_9  Scope: \tb_pcie_axi_dma(TB_SCENARIO=2,FIFO_DEPTH=64,BATCH_COUNT=4,BATCH_TIMEOUT=64,SINK_STALL_EN=1'b1,SINK_STALL_PERIOD=4,SINK_STALL_READY=1) .dut.u_fifo  File: /get/work/krishna.vardhan/git_trees/mtp_pcie_axi/pcie_axi_dma_latency/design/rtl/axis_fifo.sv Line: 165
Warning: [axis_fifo] FIFO full (depth=64) — upstream back-pressured at t=18165000
Time: 18165 ns  Iteration: 0  Process: /tb_pcie_axi_dma(TB_SCENARIO=2,FIFO_DEPTH=64,BATCH_COUNT=4,BATCH_TIMEOUT=64,SINK_STALL_EN=1'b1,SINK_STALL_PERIOD=4,SINK_STALL_READY=1)/dut/u_fifo/Always163_9  Scope: \tb_pcie_axi_dma(TB_SCENARIO=2,FIFO_DEPTH=64,BATCH_COUNT=4,BATCH_TIMEOUT=64,SINK_STALL_EN=1'b1,SINK_STALL_PERIOD=4,SINK_STALL_READY=1) .dut.u_fifo  File: /get/work/krishna.vardhan/git_trees/mtp_pcie_axi/pcie_axi_dma_latency/design/rtl/axis_fifo.sv Line: 165
Warning: [axis_fifo] FIFO full (depth=64) — upstream back-pressured at t=18175000
Time: 18175 ns  Iteration: 0  Process: /tb_pcie_axi_dma(TB_SCENARIO=2,FIFO_DEPTH=64,BATCH_COUNT=4,BATCH_TIMEOUT=64,SINK_STALL_EN=1'b1,SINK_STALL_PERIOD=4,SINK_STALL_READY=1)/dut/u_fifo/Always163_9  Scope: \tb_pcie_axi_dma(TB_SCENARIO=2,FIFO_DEPTH=64,BATCH_COUNT=4,BATCH_TIMEOUT=64,SINK_STALL_EN=1'b1,SINK_STALL_PERIOD=4,SINK_STALL_READY=1) .dut.u_fifo  File: /get/work/krishna.vardhan/git_trees/mtp_pcie_axi/pcie_axi_dma_latency/design/rtl/axis_fifo.sv Line: 165
Warning: [axis_fifo] FIFO full (depth=64) — upstream back-pressured at t=18195000
Time: 18195 ns  Iteration: 0  Process: /tb_pcie_axi_dma(TB_SCENARIO=2,FIFO_DEPTH=64,BATCH_COUNT=4,BATCH_TIMEOUT=64,SINK_STALL_EN=1'b1,SINK_STALL_PERIOD=4,SINK_STALL_READY=1)/dut/u_fifo/Always163_9  Scope: \tb_pcie_axi_dma(TB_SCENARIO=2,FIFO_DEPTH=64,BATCH_COUNT=4,BATCH_TIMEOUT=64,SINK_STALL_EN=1'b1,SINK_STALL_PERIOD=4,SINK_STALL_READY=1) .dut.u_fifo  File: /get/work/krishna.vardhan/git_trees/mtp_pcie_axi/pcie_axi_dma_latency/design/rtl/axis_fifo.sv Line: 165
Warning: [axis_fifo] FIFO full (depth=64) — upstream back-pressured at t=18205000
Time: 18205 ns  Iteration: 0  Process: /tb_pcie_axi_dma(TB_SCENARIO=2,FIFO_DEPTH=64,BATCH_COUNT=4,BATCH_TIMEOUT=64,SINK_STALL_EN=1'b1,SINK_STALL_PERIOD=4,SINK_STALL_READY=1)/dut/u_fifo/Always163_9  Scope: \tb_pcie_axi_dma(TB_SCENARIO=2,FIFO_DEPTH=64,BATCH_COUNT=4,BATCH_TIMEOUT=64,SINK_STALL_EN=1'b1,SINK_STALL_PERIOD=4,SINK_STALL_READY=1) .dut.u_fifo  File: /get/work/krishna.vardhan/git_trees/mtp_pcie_axi/pcie_axi_dma_latency/design/rtl/axis_fifo.sv Line: 165
Warning: [axis_fifo] FIFO full (depth=64) — upstream back-pressured at t=18215000
Time: 18215 ns  Iteration: 0  Process: /tb_pcie_axi_dma(TB_SCENARIO=2,FIFO_DEPTH=64,BATCH_COUNT=4,BATCH_TIMEOUT=64,SINK_STALL_EN=1'b1,SINK_STALL_PERIOD=4,SINK_STALL_READY=1)/dut/u_fifo/Always163_9  Scope: \tb_pcie_axi_dma(TB_SCENARIO=2,FIFO_DEPTH=64,BATCH_COUNT=4,BATCH_TIMEOUT=64,SINK_STALL_EN=1'b1,SINK_STALL_PERIOD=4,SINK_STALL_READY=1) .dut.u_fifo  File: /get/work/krishna.vardhan/git_trees/mtp_pcie_axi/pcie_axi_dma_latency/design/rtl/axis_fifo.sv Line: 165
Warning: [axis_fifo] FIFO full (depth=64) — upstream back-pressured at t=18235000
Time: 18235 ns  Iteration: 0  Process: /tb_pcie_axi_dma(TB_SCENARIO=2,FIFO_DEPTH=64,BATCH_COUNT=4,BATCH_TIMEOUT=64,SINK_STALL_EN=1'b1,SINK_STALL_PERIOD=4,SINK_STALL_READY=1)/dut/u_fifo/Always163_9  Scope: \tb_pcie_axi_dma(TB_SCENARIO=2,FIFO_DEPTH=64,BATCH_COUNT=4,BATCH_TIMEOUT=64,SINK_STALL_EN=1'b1,SINK_STALL_PERIOD=4,SINK_STALL_READY=1) .dut.u_fifo  File: /get/work/krishna.vardhan/git_trees/mtp_pcie_axi/pcie_axi_dma_latency/design/rtl/axis_fifo.sv Line: 165
Warning: [axis_fifo] FIFO full (depth=64) — upstream back-pressured at t=18245000
Time: 18245 ns  Iteration: 0  Process: /tb_pcie_axi_dma(TB_SCENARIO=2,FIFO_DEPTH=64,BATCH_COUNT=4,BATCH_TIMEOUT=64,SINK_STALL_EN=1'b1,SINK_STALL_PERIOD=4,SINK_STALL_READY=1)/dut/u_fifo/Always163_9  Scope: \tb_pcie_axi_dma(TB_SCENARIO=2,FIFO_DEPTH=64,BATCH_COUNT=4,BATCH_TIMEOUT=64,SINK_STALL_EN=1'b1,SINK_STALL_PERIOD=4,SINK_STALL_READY=1) .dut.u_fifo  File: /get/work/krishna.vardhan/git_trees/mtp_pcie_axi/pcie_axi_dma_latency/design/rtl/axis_fifo.sv Line: 165
Warning: [axis_fifo] FIFO full (depth=64) — upstream back-pressured at t=18255000
Time: 18255 ns  Iteration: 0  Process: /tb_pcie_axi_dma(TB_SCENARIO=2,FIFO_DEPTH=64,BATCH_COUNT=4,BATCH_TIMEOUT=64,SINK_STALL_EN=1'b1,SINK_STALL_PERIOD=4,SINK_STALL_READY=1)/dut/u_fifo/Always163_9  Scope: \tb_pcie_axi_dma(TB_SCENARIO=2,FIFO_DEPTH=64,BATCH_COUNT=4,BATCH_TIMEOUT=64,SINK_STALL_EN=1'b1,SINK_STALL_PERIOD=4,SINK_STALL_READY=1) .dut.u_fifo  File: /get/work/krishna.vardhan/git_trees/mtp_pcie_axi/pcie_axi_dma_latency/design/rtl/axis_fifo.sv Line: 165
Warning: [axis_fifo] FIFO full (depth=64) — upstream back-pressured at t=18275000
Time: 18275 ns  Iteration: 0  Process: /tb_pcie_axi_dma(TB_SCENARIO=2,FIFO_DEPTH=64,BATCH_COUNT=4,BATCH_TIMEOUT=64,SINK_STALL_EN=1'b1,SINK_STALL_PERIOD=4,SINK_STALL_READY=1)/dut/u_fifo/Always163_9  Scope: \tb_pcie_axi_dma(TB_SCENARIO=2,FIFO_DEPTH=64,BATCH_COUNT=4,BATCH_TIMEOUT=64,SINK_STALL_EN=1'b1,SINK_STALL_PERIOD=4,SINK_STALL_READY=1) .dut.u_fifo  File: /get/work/krishna.vardhan/git_trees/mtp_pcie_axi/pcie_axi_dma_latency/design/rtl/axis_fifo.sv Line: 165
Warning: [axis_fifo] FIFO full (depth=64) — upstream back-pressured at t=18285000
Time: 18285 ns  Iteration: 0  Process: /tb_pcie_axi_dma(TB_SCENARIO=2,FIFO_DEPTH=64,BATCH_COUNT=4,BATCH_TIMEOUT=64,SINK_STALL_EN=1'b1,SINK_STALL_PERIOD=4,SINK_STALL_READY=1)/dut/u_fifo/Always163_9  Scope: \tb_pcie_axi_dma(TB_SCENARIO=2,FIFO_DEPTH=64,BATCH_COUNT=4,BATCH_TIMEOUT=64,SINK_STALL_EN=1'b1,SINK_STALL_PERIOD=4,SINK_STALL_READY=1) .dut.u_fifo  File: /get/work/krishna.vardhan/git_trees/mtp_pcie_axi/pcie_axi_dma_latency/design/rtl/axis_fifo.sv Line: 165
Warning: [axis_fifo] FIFO full (depth=64) — upstream back-pressured at t=18295000
Time: 18295 ns  Iteration: 0  Process: /tb_pcie_axi_dma(TB_SCENARIO=2,FIFO_DEPTH=64,BATCH_COUNT=4,BATCH_TIMEOUT=64,SINK_STALL_EN=1'b1,SINK_STALL_PERIOD=4,SINK_STALL_READY=1)/dut/u_fifo/Always163_9  Scope: \tb_pcie_axi_dma(TB_SCENARIO=2,FIFO_DEPTH=64,BATCH_COUNT=4,BATCH_TIMEOUT=64,SINK_STALL_EN=1'b1,SINK_STALL_PERIOD=4,SINK_STALL_READY=1) .dut.u_fifo  File: /get/work/krishna.vardhan/git_trees/mtp_pcie_axi/pcie_axi_dma_latency/design/rtl/axis_fifo.sv Line: 165
Warning: [axis_fifo] FIFO full (depth=64) — upstream back-pressured at t=18315000
Time: 18315 ns  Iteration: 0  Process: /tb_pcie_axi_dma(TB_SCENARIO=2,FIFO_DEPTH=64,BATCH_COUNT=4,BATCH_TIMEOUT=64,SINK_STALL_EN=1'b1,SINK_STALL_PERIOD=4,SINK_STALL_READY=1)/dut/u_fifo/Always163_9  Scope: \tb_pcie_axi_dma(TB_SCENARIO=2,FIFO_DEPTH=64,BATCH_COUNT=4,BATCH_TIMEOUT=64,SINK_STALL_EN=1'b1,SINK_STALL_PERIOD=4,SINK_STALL_READY=1) .dut.u_fifo  File: /get/work/krishna.vardhan/git_trees/mtp_pcie_axi/pcie_axi_dma_latency/design/rtl/axis_fifo.sv Line: 165
Warning: [axis_fifo] FIFO full (depth=64) — upstream back-pressured at t=18325000
Time: 18325 ns  Iteration: 0  Process: /tb_pcie_axi_dma(TB_SCENARIO=2,FIFO_DEPTH=64,BATCH_COUNT=4,BATCH_TIMEOUT=64,SINK_STALL_EN=1'b1,SINK_STALL_PERIOD=4,SINK_STALL_READY=1)/dut/u_fifo/Always163_9  Scope: \tb_pcie_axi_dma(TB_SCENARIO=2,FIFO_DEPTH=64,BATCH_COUNT=4,BATCH_TIMEOUT=64,SINK_STALL_EN=1'b1,SINK_STALL_PERIOD=4,SINK_STALL_READY=1) .dut.u_fifo  File: /get/work/krishna.vardhan/git_trees/mtp_pcie_axi/pcie_axi_dma_latency/design/rtl/axis_fifo.sv Line: 165
Warning: [axis_fifo] FIFO full (depth=64) — upstream back-pressured at t=18335000
Time: 18335 ns  Iteration: 0  Process: /tb_pcie_axi_dma(TB_SCENARIO=2,FIFO_DEPTH=64,BATCH_COUNT=4,BATCH_TIMEOUT=64,SINK_STALL_EN=1'b1,SINK_STALL_PERIOD=4,SINK_STALL_READY=1)/dut/u_fifo/Always163_9  Scope: \tb_pcie_axi_dma(TB_SCENARIO=2,FIFO_DEPTH=64,BATCH_COUNT=4,BATCH_TIMEOUT=64,SINK_STALL_EN=1'b1,SINK_STALL_PERIOD=4,SINK_STALL_READY=1) .dut.u_fifo  File: /get/work/krishna.vardhan/git_trees/mtp_pcie_axi/pcie_axi_dma_latency/design/rtl/axis_fifo.sv Line: 165
Warning: [axis_fifo] FIFO full (depth=64) — upstream back-pressured at t=18355000
Time: 18355 ns  Iteration: 0  Process: /tb_pcie_axi_dma(TB_SCENARIO=2,FIFO_DEPTH=64,BATCH_COUNT=4,BATCH_TIMEOUT=64,SINK_STALL_EN=1'b1,SINK_STALL_PERIOD=4,SINK_STALL_READY=1)/dut/u_fifo/Always163_9  Scope: \tb_pcie_axi_dma(TB_SCENARIO=2,FIFO_DEPTH=64,BATCH_COUNT=4,BATCH_TIMEOUT=64,SINK_STALL_EN=1'b1,SINK_STALL_PERIOD=4,SINK_STALL_READY=1) .dut.u_fifo  File: /get/work/krishna.vardhan/git_trees/mtp_pcie_axi/pcie_axi_dma_latency/design/rtl/axis_fifo.sv Line: 165
Warning: [axis_fifo] FIFO full (depth=64) — upstream back-pressured at t=18365000
Time: 18365 ns  Iteration: 0  Process: /tb_pcie_axi_dma(TB_SCENARIO=2,FIFO_DEPTH=64,BATCH_COUNT=4,BATCH_TIMEOUT=64,SINK_STALL_EN=1'b1,SINK_STALL_PERIOD=4,SINK_STALL_READY=1)/dut/u_fifo/Always163_9  Scope: \tb_pcie_axi_dma(TB_SCENARIO=2,FIFO_DEPTH=64,BATCH_COUNT=4,BATCH_TIMEOUT=64,SINK_STALL_EN=1'b1,SINK_STALL_PERIOD=4,SINK_STALL_READY=1) .dut.u_fifo  File: /get/work/krishna.vardhan/git_trees/mtp_pcie_axi/pcie_axi_dma_latency/design/rtl/axis_fifo.sv Line: 165
Warning: [axis_fifo] FIFO full (depth=64) — upstream back-pressured at t=18375000
Time: 18375 ns  Iteration: 0  Process: /tb_pcie_axi_dma(TB_SCENARIO=2,FIFO_DEPTH=64,BATCH_COUNT=4,BATCH_TIMEOUT=64,SINK_STALL_EN=1'b1,SINK_STALL_PERIOD=4,SINK_STALL_READY=1)/dut/u_fifo/Always163_9  Scope: \tb_pcie_axi_dma(TB_SCENARIO=2,FIFO_DEPTH=64,BATCH_COUNT=4,BATCH_TIMEOUT=64,SINK_STALL_EN=1'b1,SINK_STALL_PERIOD=4,SINK_STALL_READY=1) .dut.u_fifo  File: /get/work/krishna.vardhan/git_trees/mtp_pcie_axi/pcie_axi_dma_latency/design/rtl/axis_fifo.sv Line: 165
Warning: [axis_fifo] FIFO full (depth=64) — upstream back-pressured at t=18395000
Time: 18395 ns  Iteration: 0  Process: /tb_pcie_axi_dma(TB_SCENARIO=2,FIFO_DEPTH=64,BATCH_COUNT=4,BATCH_TIMEOUT=64,SINK_STALL_EN=1'b1,SINK_STALL_PERIOD=4,SINK_STALL_READY=1)/dut/u_fifo/Always163_9  Scope: \tb_pcie_axi_dma(TB_SCENARIO=2,FIFO_DEPTH=64,BATCH_COUNT=4,BATCH_TIMEOUT=64,SINK_STALL_EN=1'b1,SINK_STALL_PERIOD=4,SINK_STALL_READY=1) .dut.u_fifo  File: /get/work/krishna.vardhan/git_trees/mtp_pcie_axi/pcie_axi_dma_latency/design/rtl/axis_fifo.sv Line: 165
Warning: [axis_fifo] FIFO full (depth=64) — upstream back-pressured at t=18405000
Time: 18405 ns  Iteration: 0  Process: /tb_pcie_axi_dma(TB_SCENARIO=2,FIFO_DEPTH=64,BATCH_COUNT=4,BATCH_TIMEOUT=64,SINK_STALL_EN=1'b1,SINK_STALL_PERIOD=4,SINK_STALL_READY=1)/dut/u_fifo/Always163_9  Scope: \tb_pcie_axi_dma(TB_SCENARIO=2,FIFO_DEPTH=64,BATCH_COUNT=4,BATCH_TIMEOUT=64,SINK_STALL_EN=1'b1,SINK_STALL_PERIOD=4,SINK_STALL_READY=1) .dut.u_fifo  File: /get/work/krishna.vardhan/git_trees/mtp_pcie_axi/pcie_axi_dma_latency/design/rtl/axis_fifo.sv Line: 165
Warning: [axis_fifo] FIFO full (depth=64) — upstream back-pressured at t=18415000
Time: 18415 ns  Iteration: 0  Process: /tb_pcie_axi_dma(TB_SCENARIO=2,FIFO_DEPTH=64,BATCH_COUNT=4,BATCH_TIMEOUT=64,SINK_STALL_EN=1'b1,SINK_STALL_PERIOD=4,SINK_STALL_READY=1)/dut/u_fifo/Always163_9  Scope: \tb_pcie_axi_dma(TB_SCENARIO=2,FIFO_DEPTH=64,BATCH_COUNT=4,BATCH_TIMEOUT=64,SINK_STALL_EN=1'b1,SINK_STALL_PERIOD=4,SINK_STALL_READY=1) .dut.u_fifo  File: /get/work/krishna.vardhan/git_trees/mtp_pcie_axi/pcie_axi_dma_latency/design/rtl/axis_fifo.sv Line: 165
Warning: [axis_fifo] FIFO full (depth=64) — upstream back-pressured at t=18435000
Time: 18435 ns  Iteration: 0  Process: /tb_pcie_axi_dma(TB_SCENARIO=2,FIFO_DEPTH=64,BATCH_COUNT=4,BATCH_TIMEOUT=64,SINK_STALL_EN=1'b1,SINK_STALL_PERIOD=4,SINK_STALL_READY=1)/dut/u_fifo/Always163_9  Scope: \tb_pcie_axi_dma(TB_SCENARIO=2,FIFO_DEPTH=64,BATCH_COUNT=4,BATCH_TIMEOUT=64,SINK_STALL_EN=1'b1,SINK_STALL_PERIOD=4,SINK_STALL_READY=1) .dut.u_fifo  File: /get/work/krishna.vardhan/git_trees/mtp_pcie_axi/pcie_axi_dma_latency/design/rtl/axis_fifo.sv Line: 165
Warning: [axis_fifo] FIFO full (depth=64) — upstream back-pressured at t=18445000
Time: 18445 ns  Iteration: 0  Process: /tb_pcie_axi_dma(TB_SCENARIO=2,FIFO_DEPTH=64,BATCH_COUNT=4,BATCH_TIMEOUT=64,SINK_STALL_EN=1'b1,SINK_STALL_PERIOD=4,SINK_STALL_READY=1)/dut/u_fifo/Always163_9  Scope: \tb_pcie_axi_dma(TB_SCENARIO=2,FIFO_DEPTH=64,BATCH_COUNT=4,BATCH_TIMEOUT=64,SINK_STALL_EN=1'b1,SINK_STALL_PERIOD=4,SINK_STALL_READY=1) .dut.u_fifo  File: /get/work/krishna.vardhan/git_trees/mtp_pcie_axi/pcie_axi_dma_latency/design/rtl/axis_fifo.sv Line: 165
Warning: [axis_fifo] FIFO full (depth=64) — upstream back-pressured at t=18455000
Time: 18455 ns  Iteration: 0  Process: /tb_pcie_axi_dma(TB_SCENARIO=2,FIFO_DEPTH=64,BATCH_COUNT=4,BATCH_TIMEOUT=64,SINK_STALL_EN=1'b1,SINK_STALL_PERIOD=4,SINK_STALL_READY=1)/dut/u_fifo/Always163_9  Scope: \tb_pcie_axi_dma(TB_SCENARIO=2,FIFO_DEPTH=64,BATCH_COUNT=4,BATCH_TIMEOUT=64,SINK_STALL_EN=1'b1,SINK_STALL_PERIOD=4,SINK_STALL_READY=1) .dut.u_fifo  File: /get/work/krishna.vardhan/git_trees/mtp_pcie_axi/pcie_axi_dma_latency/design/rtl/axis_fifo.sv Line: 165
Warning: [axis_fifo] FIFO full (depth=64) — upstream back-pressured at t=18475000
Time: 18475 ns  Iteration: 0  Process: /tb_pcie_axi_dma(TB_SCENARIO=2,FIFO_DEPTH=64,BATCH_COUNT=4,BATCH_TIMEOUT=64,SINK_STALL_EN=1'b1,SINK_STALL_PERIOD=4,SINK_STALL_READY=1)/dut/u_fifo/Always163_9  Scope: \tb_pcie_axi_dma(TB_SCENARIO=2,FIFO_DEPTH=64,BATCH_COUNT=4,BATCH_TIMEOUT=64,SINK_STALL_EN=1'b1,SINK_STALL_PERIOD=4,SINK_STALL_READY=1) .dut.u_fifo  File: /get/work/krishna.vardhan/git_trees/mtp_pcie_axi/pcie_axi_dma_latency/design/rtl/axis_fifo.sv Line: 165
Warning: [axis_fifo] FIFO full (depth=64) — upstream back-pressured at t=18485000
Time: 18485 ns  Iteration: 0  Process: /tb_pcie_axi_dma(TB_SCENARIO=2,FIFO_DEPTH=64,BATCH_COUNT=4,BATCH_TIMEOUT=64,SINK_STALL_EN=1'b1,SINK_STALL_PERIOD=4,SINK_STALL_READY=1)/dut/u_fifo/Always163_9  Scope: \tb_pcie_axi_dma(TB_SCENARIO=2,FIFO_DEPTH=64,BATCH_COUNT=4,BATCH_TIMEOUT=64,SINK_STALL_EN=1'b1,SINK_STALL_PERIOD=4,SINK_STALL_READY=1) .dut.u_fifo  File: /get/work/krishna.vardhan/git_trees/mtp_pcie_axi/pcie_axi_dma_latency/design/rtl/axis_fifo.sv Line: 165
Warning: [axis_fifo] FIFO full (depth=64) — upstream back-pressured at t=18495000
Time: 18495 ns  Iteration: 0  Process: /tb_pcie_axi_dma(TB_SCENARIO=2,FIFO_DEPTH=64,BATCH_COUNT=4,BATCH_TIMEOUT=64,SINK_STALL_EN=1'b1,SINK_STALL_PERIOD=4,SINK_STALL_READY=1)/dut/u_fifo/Always163_9  Scope: \tb_pcie_axi_dma(TB_SCENARIO=2,FIFO_DEPTH=64,BATCH_COUNT=4,BATCH_TIMEOUT=64,SINK_STALL_EN=1'b1,SINK_STALL_PERIOD=4,SINK_STALL_READY=1) .dut.u_fifo  File: /get/work/krishna.vardhan/git_trees/mtp_pcie_axi/pcie_axi_dma_latency/design/rtl/axis_fifo.sv Line: 165
Warning: [axis_fifo] FIFO full (depth=64) — upstream back-pressured at t=18515000
Time: 18515 ns  Iteration: 0  Process: /tb_pcie_axi_dma(TB_SCENARIO=2,FIFO_DEPTH=64,BATCH_COUNT=4,BATCH_TIMEOUT=64,SINK_STALL_EN=1'b1,SINK_STALL_PERIOD=4,SINK_STALL_READY=1)/dut/u_fifo/Always163_9  Scope: \tb_pcie_axi_dma(TB_SCENARIO=2,FIFO_DEPTH=64,BATCH_COUNT=4,BATCH_TIMEOUT=64,SINK_STALL_EN=1'b1,SINK_STALL_PERIOD=4,SINK_STALL_READY=1) .dut.u_fifo  File: /get/work/krishna.vardhan/git_trees/mtp_pcie_axi/pcie_axi_dma_latency/design/rtl/axis_fifo.sv Line: 165
Warning: [axis_fifo] FIFO full (depth=64) — upstream back-pressured at t=18525000
Time: 18525 ns  Iteration: 0  Process: /tb_pcie_axi_dma(TB_SCENARIO=2,FIFO_DEPTH=64,BATCH_COUNT=4,BATCH_TIMEOUT=64,SINK_STALL_EN=1'b1,SINK_STALL_PERIOD=4,SINK_STALL_READY=1)/dut/u_fifo/Always163_9  Scope: \tb_pcie_axi_dma(TB_SCENARIO=2,FIFO_DEPTH=64,BATCH_COUNT=4,BATCH_TIMEOUT=64,SINK_STALL_EN=1'b1,SINK_STALL_PERIOD=4,SINK_STALL_READY=1) .dut.u_fifo  File: /get/work/krishna.vardhan/git_trees/mtp_pcie_axi/pcie_axi_dma_latency/design/rtl/axis_fifo.sv Line: 165
Warning: [axis_fifo] FIFO full (depth=64) — upstream back-pressured at t=18535000
Time: 18535 ns  Iteration: 0  Process: /tb_pcie_axi_dma(TB_SCENARIO=2,FIFO_DEPTH=64,BATCH_COUNT=4,BATCH_TIMEOUT=64,SINK_STALL_EN=1'b1,SINK_STALL_PERIOD=4,SINK_STALL_READY=1)/dut/u_fifo/Always163_9  Scope: \tb_pcie_axi_dma(TB_SCENARIO=2,FIFO_DEPTH=64,BATCH_COUNT=4,BATCH_TIMEOUT=64,SINK_STALL_EN=1'b1,SINK_STALL_PERIOD=4,SINK_STALL_READY=1) .dut.u_fifo  File: /get/work/krishna.vardhan/git_trees/mtp_pcie_axi/pcie_axi_dma_latency/design/rtl/axis_fifo.sv Line: 165
Warning: [axis_fifo] FIFO full (depth=64) — upstream back-pressured at t=18555000
Time: 18555 ns  Iteration: 0  Process: /tb_pcie_axi_dma(TB_SCENARIO=2,FIFO_DEPTH=64,BATCH_COUNT=4,BATCH_TIMEOUT=64,SINK_STALL_EN=1'b1,SINK_STALL_PERIOD=4,SINK_STALL_READY=1)/dut/u_fifo/Always163_9  Scope: \tb_pcie_axi_dma(TB_SCENARIO=2,FIFO_DEPTH=64,BATCH_COUNT=4,BATCH_TIMEOUT=64,SINK_STALL_EN=1'b1,SINK_STALL_PERIOD=4,SINK_STALL_READY=1) .dut.u_fifo  File: /get/work/krishna.vardhan/git_trees/mtp_pcie_axi/pcie_axi_dma_latency/design/rtl/axis_fifo.sv Line: 165
Warning: [axis_fifo] FIFO full (depth=64) — upstream back-pressured at t=18565000
Time: 18565 ns  Iteration: 0  Process: /tb_pcie_axi_dma(TB_SCENARIO=2,FIFO_DEPTH=64,BATCH_COUNT=4,BATCH_TIMEOUT=64,SINK_STALL_EN=1'b1,SINK_STALL_PERIOD=4,SINK_STALL_READY=1)/dut/u_fifo/Always163_9  Scope: \tb_pcie_axi_dma(TB_SCENARIO=2,FIFO_DEPTH=64,BATCH_COUNT=4,BATCH_TIMEOUT=64,SINK_STALL_EN=1'b1,SINK_STALL_PERIOD=4,SINK_STALL_READY=1) .dut.u_fifo  File: /get/work/krishna.vardhan/git_trees/mtp_pcie_axi/pcie_axi_dma_latency/design/rtl/axis_fifo.sv Line: 165
Warning: [axis_fifo] FIFO full (depth=64) — upstream back-pressured at t=18575000
Time: 18575 ns  Iteration: 0  Process: /tb_pcie_axi_dma(TB_SCENARIO=2,FIFO_DEPTH=64,BATCH_COUNT=4,BATCH_TIMEOUT=64,SINK_STALL_EN=1'b1,SINK_STALL_PERIOD=4,SINK_STALL_READY=1)/dut/u_fifo/Always163_9  Scope: \tb_pcie_axi_dma(TB_SCENARIO=2,FIFO_DEPTH=64,BATCH_COUNT=4,BATCH_TIMEOUT=64,SINK_STALL_EN=1'b1,SINK_STALL_PERIOD=4,SINK_STALL_READY=1) .dut.u_fifo  File: /get/work/krishna.vardhan/git_trees/mtp_pcie_axi/pcie_axi_dma_latency/design/rtl/axis_fifo.sv Line: 165
Warning: [axis_fifo] FIFO full (depth=64) — upstream back-pressured at t=18595000
Time: 18595 ns  Iteration: 0  Process: /tb_pcie_axi_dma(TB_SCENARIO=2,FIFO_DEPTH=64,BATCH_COUNT=4,BATCH_TIMEOUT=64,SINK_STALL_EN=1'b1,SINK_STALL_PERIOD=4,SINK_STALL_READY=1)/dut/u_fifo/Always163_9  Scope: \tb_pcie_axi_dma(TB_SCENARIO=2,FIFO_DEPTH=64,BATCH_COUNT=4,BATCH_TIMEOUT=64,SINK_STALL_EN=1'b1,SINK_STALL_PERIOD=4,SINK_STALL_READY=1) .dut.u_fifo  File: /get/work/krishna.vardhan/git_trees/mtp_pcie_axi/pcie_axi_dma_latency/design/rtl/axis_fifo.sv Line: 165
Warning: [axis_fifo] FIFO full (depth=64) — upstream back-pressured at t=18605000
Time: 18605 ns  Iteration: 0  Process: /tb_pcie_axi_dma(TB_SCENARIO=2,FIFO_DEPTH=64,BATCH_COUNT=4,BATCH_TIMEOUT=64,SINK_STALL_EN=1'b1,SINK_STALL_PERIOD=4,SINK_STALL_READY=1)/dut/u_fifo/Always163_9  Scope: \tb_pcie_axi_dma(TB_SCENARIO=2,FIFO_DEPTH=64,BATCH_COUNT=4,BATCH_TIMEOUT=64,SINK_STALL_EN=1'b1,SINK_STALL_PERIOD=4,SINK_STALL_READY=1) .dut.u_fifo  File: /get/work/krishna.vardhan/git_trees/mtp_pcie_axi/pcie_axi_dma_latency/design/rtl/axis_fifo.sv Line: 165
Warning: [axis_fifo] FIFO full (depth=64) — upstream back-pressured at t=18615000
Time: 18615 ns  Iteration: 0  Process: /tb_pcie_axi_dma(TB_SCENARIO=2,FIFO_DEPTH=64,BATCH_COUNT=4,BATCH_TIMEOUT=64,SINK_STALL_EN=1'b1,SINK_STALL_PERIOD=4,SINK_STALL_READY=1)/dut/u_fifo/Always163_9  Scope: \tb_pcie_axi_dma(TB_SCENARIO=2,FIFO_DEPTH=64,BATCH_COUNT=4,BATCH_TIMEOUT=64,SINK_STALL_EN=1'b1,SINK_STALL_PERIOD=4,SINK_STALL_READY=1) .dut.u_fifo  File: /get/work/krishna.vardhan/git_trees/mtp_pcie_axi/pcie_axi_dma_latency/design/rtl/axis_fifo.sv Line: 165
Warning: [axis_fifo] FIFO full (depth=64) — upstream back-pressured at t=18635000
Time: 18635 ns  Iteration: 0  Process: /tb_pcie_axi_dma(TB_SCENARIO=2,FIFO_DEPTH=64,BATCH_COUNT=4,BATCH_TIMEOUT=64,SINK_STALL_EN=1'b1,SINK_STALL_PERIOD=4,SINK_STALL_READY=1)/dut/u_fifo/Always163_9  Scope: \tb_pcie_axi_dma(TB_SCENARIO=2,FIFO_DEPTH=64,BATCH_COUNT=4,BATCH_TIMEOUT=64,SINK_STALL_EN=1'b1,SINK_STALL_PERIOD=4,SINK_STALL_READY=1) .dut.u_fifo  File: /get/work/krishna.vardhan/git_trees/mtp_pcie_axi/pcie_axi_dma_latency/design/rtl/axis_fifo.sv Line: 165
Warning: [axis_fifo] FIFO full (depth=64) — upstream back-pressured at t=18645000
Time: 18645 ns  Iteration: 0  Process: /tb_pcie_axi_dma(TB_SCENARIO=2,FIFO_DEPTH=64,BATCH_COUNT=4,BATCH_TIMEOUT=64,SINK_STALL_EN=1'b1,SINK_STALL_PERIOD=4,SINK_STALL_READY=1)/dut/u_fifo/Always163_9  Scope: \tb_pcie_axi_dma(TB_SCENARIO=2,FIFO_DEPTH=64,BATCH_COUNT=4,BATCH_TIMEOUT=64,SINK_STALL_EN=1'b1,SINK_STALL_PERIOD=4,SINK_STALL_READY=1) .dut.u_fifo  File: /get/work/krishna.vardhan/git_trees/mtp_pcie_axi/pcie_axi_dma_latency/design/rtl/axis_fifo.sv Line: 165
Warning: [axis_fifo] FIFO full (depth=64) — upstream back-pressured at t=18655000
Time: 18655 ns  Iteration: 0  Process: /tb_pcie_axi_dma(TB_SCENARIO=2,FIFO_DEPTH=64,BATCH_COUNT=4,BATCH_TIMEOUT=64,SINK_STALL_EN=1'b1,SINK_STALL_PERIOD=4,SINK_STALL_READY=1)/dut/u_fifo/Always163_9  Scope: \tb_pcie_axi_dma(TB_SCENARIO=2,FIFO_DEPTH=64,BATCH_COUNT=4,BATCH_TIMEOUT=64,SINK_STALL_EN=1'b1,SINK_STALL_PERIOD=4,SINK_STALL_READY=1) .dut.u_fifo  File: /get/work/krishna.vardhan/git_trees/mtp_pcie_axi/pcie_axi_dma_latency/design/rtl/axis_fifo.sv Line: 165
Warning: [axis_fifo] FIFO full (depth=64) — upstream back-pressured at t=18675000
Time: 18675 ns  Iteration: 0  Process: /tb_pcie_axi_dma(TB_SCENARIO=2,FIFO_DEPTH=64,BATCH_COUNT=4,BATCH_TIMEOUT=64,SINK_STALL_EN=1'b1,SINK_STALL_PERIOD=4,SINK_STALL_READY=1)/dut/u_fifo/Always163_9  Scope: \tb_pcie_axi_dma(TB_SCENARIO=2,FIFO_DEPTH=64,BATCH_COUNT=4,BATCH_TIMEOUT=64,SINK_STALL_EN=1'b1,SINK_STALL_PERIOD=4,SINK_STALL_READY=1) .dut.u_fifo  File: /get/work/krishna.vardhan/git_trees/mtp_pcie_axi/pcie_axi_dma_latency/design/rtl/axis_fifo.sv Line: 165
Warning: [axis_fifo] FIFO full (depth=64) — upstream back-pressured at t=18685000
Time: 18685 ns  Iteration: 0  Process: /tb_pcie_axi_dma(TB_SCENARIO=2,FIFO_DEPTH=64,BATCH_COUNT=4,BATCH_TIMEOUT=64,SINK_STALL_EN=1'b1,SINK_STALL_PERIOD=4,SINK_STALL_READY=1)/dut/u_fifo/Always163_9  Scope: \tb_pcie_axi_dma(TB_SCENARIO=2,FIFO_DEPTH=64,BATCH_COUNT=4,BATCH_TIMEOUT=64,SINK_STALL_EN=1'b1,SINK_STALL_PERIOD=4,SINK_STALL_READY=1) .dut.u_fifo  File: /get/work/krishna.vardhan/git_trees/mtp_pcie_axi/pcie_axi_dma_latency/design/rtl/axis_fifo.sv Line: 165
Warning: [axis_fifo] FIFO full (depth=64) — upstream back-pressured at t=18695000
Time: 18695 ns  Iteration: 0  Process: /tb_pcie_axi_dma(TB_SCENARIO=2,FIFO_DEPTH=64,BATCH_COUNT=4,BATCH_TIMEOUT=64,SINK_STALL_EN=1'b1,SINK_STALL_PERIOD=4,SINK_STALL_READY=1)/dut/u_fifo/Always163_9  Scope: \tb_pcie_axi_dma(TB_SCENARIO=2,FIFO_DEPTH=64,BATCH_COUNT=4,BATCH_TIMEOUT=64,SINK_STALL_EN=1'b1,SINK_STALL_PERIOD=4,SINK_STALL_READY=1) .dut.u_fifo  File: /get/work/krishna.vardhan/git_trees/mtp_pcie_axi/pcie_axi_dma_latency/design/rtl/axis_fifo.sv Line: 165
Warning: [axis_fifo] FIFO full (depth=64) — upstream back-pressured at t=18715000
Time: 18715 ns  Iteration: 0  Process: /tb_pcie_axi_dma(TB_SCENARIO=2,FIFO_DEPTH=64,BATCH_COUNT=4,BATCH_TIMEOUT=64,SINK_STALL_EN=1'b1,SINK_STALL_PERIOD=4,SINK_STALL_READY=1)/dut/u_fifo/Always163_9  Scope: \tb_pcie_axi_dma(TB_SCENARIO=2,FIFO_DEPTH=64,BATCH_COUNT=4,BATCH_TIMEOUT=64,SINK_STALL_EN=1'b1,SINK_STALL_PERIOD=4,SINK_STALL_READY=1) .dut.u_fifo  File: /get/work/krishna.vardhan/git_trees/mtp_pcie_axi/pcie_axi_dma_latency/design/rtl/axis_fifo.sv Line: 165
Warning: [axis_fifo] FIFO full (depth=64) — upstream back-pressured at t=18725000
Time: 18725 ns  Iteration: 0  Process: /tb_pcie_axi_dma(TB_SCENARIO=2,FIFO_DEPTH=64,BATCH_COUNT=4,BATCH_TIMEOUT=64,SINK_STALL_EN=1'b1,SINK_STALL_PERIOD=4,SINK_STALL_READY=1)/dut/u_fifo/Always163_9  Scope: \tb_pcie_axi_dma(TB_SCENARIO=2,FIFO_DEPTH=64,BATCH_COUNT=4,BATCH_TIMEOUT=64,SINK_STALL_EN=1'b1,SINK_STALL_PERIOD=4,SINK_STALL_READY=1) .dut.u_fifo  File: /get/work/krishna.vardhan/git_trees/mtp_pcie_axi/pcie_axi_dma_latency/design/rtl/axis_fifo.sv Line: 165
Warning: [axis_fifo] FIFO full (depth=64) — upstream back-pressured at t=18735000
Time: 18735 ns  Iteration: 0  Process: /tb_pcie_axi_dma(TB_SCENARIO=2,FIFO_DEPTH=64,BATCH_COUNT=4,BATCH_TIMEOUT=64,SINK_STALL_EN=1'b1,SINK_STALL_PERIOD=4,SINK_STALL_READY=1)/dut/u_fifo/Always163_9  Scope: \tb_pcie_axi_dma(TB_SCENARIO=2,FIFO_DEPTH=64,BATCH_COUNT=4,BATCH_TIMEOUT=64,SINK_STALL_EN=1'b1,SINK_STALL_PERIOD=4,SINK_STALL_READY=1) .dut.u_fifo  File: /get/work/krishna.vardhan/git_trees/mtp_pcie_axi/pcie_axi_dma_latency/design/rtl/axis_fifo.sv Line: 165
Warning: [axis_fifo] FIFO full (depth=64) — upstream back-pressured at t=18755000
Time: 18755 ns  Iteration: 0  Process: /tb_pcie_axi_dma(TB_SCENARIO=2,FIFO_DEPTH=64,BATCH_COUNT=4,BATCH_TIMEOUT=64,SINK_STALL_EN=1'b1,SINK_STALL_PERIOD=4,SINK_STALL_READY=1)/dut/u_fifo/Always163_9  Scope: \tb_pcie_axi_dma(TB_SCENARIO=2,FIFO_DEPTH=64,BATCH_COUNT=4,BATCH_TIMEOUT=64,SINK_STALL_EN=1'b1,SINK_STALL_PERIOD=4,SINK_STALL_READY=1) .dut.u_fifo  File: /get/work/krishna.vardhan/git_trees/mtp_pcie_axi/pcie_axi_dma_latency/design/rtl/axis_fifo.sv Line: 165
Warning: [axis_fifo] FIFO full (depth=64) — upstream back-pressured at t=18765000
Time: 18765 ns  Iteration: 0  Process: /tb_pcie_axi_dma(TB_SCENARIO=2,FIFO_DEPTH=64,BATCH_COUNT=4,BATCH_TIMEOUT=64,SINK_STALL_EN=1'b1,SINK_STALL_PERIOD=4,SINK_STALL_READY=1)/dut/u_fifo/Always163_9  Scope: \tb_pcie_axi_dma(TB_SCENARIO=2,FIFO_DEPTH=64,BATCH_COUNT=4,BATCH_TIMEOUT=64,SINK_STALL_EN=1'b1,SINK_STALL_PERIOD=4,SINK_STALL_READY=1) .dut.u_fifo  File: /get/work/krishna.vardhan/git_trees/mtp_pcie_axi/pcie_axi_dma_latency/design/rtl/axis_fifo.sv Line: 165
Warning: [axis_fifo] FIFO full (depth=64) — upstream back-pressured at t=18775000
Time: 18775 ns  Iteration: 0  Process: /tb_pcie_axi_dma(TB_SCENARIO=2,FIFO_DEPTH=64,BATCH_COUNT=4,BATCH_TIMEOUT=64,SINK_STALL_EN=1'b1,SINK_STALL_PERIOD=4,SINK_STALL_READY=1)/dut/u_fifo/Always163_9  Scope: \tb_pcie_axi_dma(TB_SCENARIO=2,FIFO_DEPTH=64,BATCH_COUNT=4,BATCH_TIMEOUT=64,SINK_STALL_EN=1'b1,SINK_STALL_PERIOD=4,SINK_STALL_READY=1) .dut.u_fifo  File: /get/work/krishna.vardhan/git_trees/mtp_pcie_axi/pcie_axi_dma_latency/design/rtl/axis_fifo.sv Line: 165
Warning: [axis_fifo] FIFO full (depth=64) — upstream back-pressured at t=18795000
Time: 18795 ns  Iteration: 0  Process: /tb_pcie_axi_dma(TB_SCENARIO=2,FIFO_DEPTH=64,BATCH_COUNT=4,BATCH_TIMEOUT=64,SINK_STALL_EN=1'b1,SINK_STALL_PERIOD=4,SINK_STALL_READY=1)/dut/u_fifo/Always163_9  Scope: \tb_pcie_axi_dma(TB_SCENARIO=2,FIFO_DEPTH=64,BATCH_COUNT=4,BATCH_TIMEOUT=64,SINK_STALL_EN=1'b1,SINK_STALL_PERIOD=4,SINK_STALL_READY=1) .dut.u_fifo  File: /get/work/krishna.vardhan/git_trees/mtp_pcie_axi/pcie_axi_dma_latency/design/rtl/axis_fifo.sv Line: 165
Warning: [axis_fifo] FIFO full (depth=64) — upstream back-pressured at t=18805000
Time: 18805 ns  Iteration: 0  Process: /tb_pcie_axi_dma(TB_SCENARIO=2,FIFO_DEPTH=64,BATCH_COUNT=4,BATCH_TIMEOUT=64,SINK_STALL_EN=1'b1,SINK_STALL_PERIOD=4,SINK_STALL_READY=1)/dut/u_fifo/Always163_9  Scope: \tb_pcie_axi_dma(TB_SCENARIO=2,FIFO_DEPTH=64,BATCH_COUNT=4,BATCH_TIMEOUT=64,SINK_STALL_EN=1'b1,SINK_STALL_PERIOD=4,SINK_STALL_READY=1) .dut.u_fifo  File: /get/work/krishna.vardhan/git_trees/mtp_pcie_axi/pcie_axi_dma_latency/design/rtl/axis_fifo.sv Line: 165
Warning: [axis_fifo] FIFO full (depth=64) — upstream back-pressured at t=18815000
Time: 18815 ns  Iteration: 0  Process: /tb_pcie_axi_dma(TB_SCENARIO=2,FIFO_DEPTH=64,BATCH_COUNT=4,BATCH_TIMEOUT=64,SINK_STALL_EN=1'b1,SINK_STALL_PERIOD=4,SINK_STALL_READY=1)/dut/u_fifo/Always163_9  Scope: \tb_pcie_axi_dma(TB_SCENARIO=2,FIFO_DEPTH=64,BATCH_COUNT=4,BATCH_TIMEOUT=64,SINK_STALL_EN=1'b1,SINK_STALL_PERIOD=4,SINK_STALL_READY=1) .dut.u_fifo  File: /get/work/krishna.vardhan/git_trees/mtp_pcie_axi/pcie_axi_dma_latency/design/rtl/axis_fifo.sv Line: 165
Warning: [axis_fifo] FIFO full (depth=64) — upstream back-pressured at t=18835000
Time: 18835 ns  Iteration: 0  Process: /tb_pcie_axi_dma(TB_SCENARIO=2,FIFO_DEPTH=64,BATCH_COUNT=4,BATCH_TIMEOUT=64,SINK_STALL_EN=1'b1,SINK_STALL_PERIOD=4,SINK_STALL_READY=1)/dut/u_fifo/Always163_9  Scope: \tb_pcie_axi_dma(TB_SCENARIO=2,FIFO_DEPTH=64,BATCH_COUNT=4,BATCH_TIMEOUT=64,SINK_STALL_EN=1'b1,SINK_STALL_PERIOD=4,SINK_STALL_READY=1) .dut.u_fifo  File: /get/work/krishna.vardhan/git_trees/mtp_pcie_axi/pcie_axi_dma_latency/design/rtl/axis_fifo.sv Line: 165
Warning: [axis_fifo] FIFO full (depth=64) — upstream back-pressured at t=18845000
Time: 18845 ns  Iteration: 0  Process: /tb_pcie_axi_dma(TB_SCENARIO=2,FIFO_DEPTH=64,BATCH_COUNT=4,BATCH_TIMEOUT=64,SINK_STALL_EN=1'b1,SINK_STALL_PERIOD=4,SINK_STALL_READY=1)/dut/u_fifo/Always163_9  Scope: \tb_pcie_axi_dma(TB_SCENARIO=2,FIFO_DEPTH=64,BATCH_COUNT=4,BATCH_TIMEOUT=64,SINK_STALL_EN=1'b1,SINK_STALL_PERIOD=4,SINK_STALL_READY=1) .dut.u_fifo  File: /get/work/krishna.vardhan/git_trees/mtp_pcie_axi/pcie_axi_dma_latency/design/rtl/axis_fifo.sv Line: 165
Warning: [axis_fifo] FIFO full (depth=64) — upstream back-pressured at t=18855000
Time: 18855 ns  Iteration: 0  Process: /tb_pcie_axi_dma(TB_SCENARIO=2,FIFO_DEPTH=64,BATCH_COUNT=4,BATCH_TIMEOUT=64,SINK_STALL_EN=1'b1,SINK_STALL_PERIOD=4,SINK_STALL_READY=1)/dut/u_fifo/Always163_9  Scope: \tb_pcie_axi_dma(TB_SCENARIO=2,FIFO_DEPTH=64,BATCH_COUNT=4,BATCH_TIMEOUT=64,SINK_STALL_EN=1'b1,SINK_STALL_PERIOD=4,SINK_STALL_READY=1) .dut.u_fifo  File: /get/work/krishna.vardhan/git_trees/mtp_pcie_axi/pcie_axi_dma_latency/design/rtl/axis_fifo.sv Line: 165
Warning: [axis_fifo] FIFO full (depth=64) — upstream back-pressured at t=18875000
Time: 18875 ns  Iteration: 0  Process: /tb_pcie_axi_dma(TB_SCENARIO=2,FIFO_DEPTH=64,BATCH_COUNT=4,BATCH_TIMEOUT=64,SINK_STALL_EN=1'b1,SINK_STALL_PERIOD=4,SINK_STALL_READY=1)/dut/u_fifo/Always163_9  Scope: \tb_pcie_axi_dma(TB_SCENARIO=2,FIFO_DEPTH=64,BATCH_COUNT=4,BATCH_TIMEOUT=64,SINK_STALL_EN=1'b1,SINK_STALL_PERIOD=4,SINK_STALL_READY=1) .dut.u_fifo  File: /get/work/krishna.vardhan/git_trees/mtp_pcie_axi/pcie_axi_dma_latency/design/rtl/axis_fifo.sv Line: 165
Warning: [axis_fifo] FIFO full (depth=64) — upstream back-pressured at t=18885000
Time: 18885 ns  Iteration: 0  Process: /tb_pcie_axi_dma(TB_SCENARIO=2,FIFO_DEPTH=64,BATCH_COUNT=4,BATCH_TIMEOUT=64,SINK_STALL_EN=1'b1,SINK_STALL_PERIOD=4,SINK_STALL_READY=1)/dut/u_fifo/Always163_9  Scope: \tb_pcie_axi_dma(TB_SCENARIO=2,FIFO_DEPTH=64,BATCH_COUNT=4,BATCH_TIMEOUT=64,SINK_STALL_EN=1'b1,SINK_STALL_PERIOD=4,SINK_STALL_READY=1) .dut.u_fifo  File: /get/work/krishna.vardhan/git_trees/mtp_pcie_axi/pcie_axi_dma_latency/design/rtl/axis_fifo.sv Line: 165
Warning: [axis_fifo] FIFO full (depth=64) — upstream back-pressured at t=18895000
Time: 18895 ns  Iteration: 0  Process: /tb_pcie_axi_dma(TB_SCENARIO=2,FIFO_DEPTH=64,BATCH_COUNT=4,BATCH_TIMEOUT=64,SINK_STALL_EN=1'b1,SINK_STALL_PERIOD=4,SINK_STALL_READY=1)/dut/u_fifo/Always163_9  Scope: \tb_pcie_axi_dma(TB_SCENARIO=2,FIFO_DEPTH=64,BATCH_COUNT=4,BATCH_TIMEOUT=64,SINK_STALL_EN=1'b1,SINK_STALL_PERIOD=4,SINK_STALL_READY=1) .dut.u_fifo  File: /get/work/krishna.vardhan/git_trees/mtp_pcie_axi/pcie_axi_dma_latency/design/rtl/axis_fifo.sv Line: 165
Warning: [axis_fifo] FIFO full (depth=64) — upstream back-pressured at t=18915000
Time: 18915 ns  Iteration: 0  Process: /tb_pcie_axi_dma(TB_SCENARIO=2,FIFO_DEPTH=64,BATCH_COUNT=4,BATCH_TIMEOUT=64,SINK_STALL_EN=1'b1,SINK_STALL_PERIOD=4,SINK_STALL_READY=1)/dut/u_fifo/Always163_9  Scope: \tb_pcie_axi_dma(TB_SCENARIO=2,FIFO_DEPTH=64,BATCH_COUNT=4,BATCH_TIMEOUT=64,SINK_STALL_EN=1'b1,SINK_STALL_PERIOD=4,SINK_STALL_READY=1) .dut.u_fifo  File: /get/work/krishna.vardhan/git_trees/mtp_pcie_axi/pcie_axi_dma_latency/design/rtl/axis_fifo.sv Line: 165
Warning: [axis_fifo] FIFO full (depth=64) — upstream back-pressured at t=18925000
Time: 18925 ns  Iteration: 0  Process: /tb_pcie_axi_dma(TB_SCENARIO=2,FIFO_DEPTH=64,BATCH_COUNT=4,BATCH_TIMEOUT=64,SINK_STALL_EN=1'b1,SINK_STALL_PERIOD=4,SINK_STALL_READY=1)/dut/u_fifo/Always163_9  Scope: \tb_pcie_axi_dma(TB_SCENARIO=2,FIFO_DEPTH=64,BATCH_COUNT=4,BATCH_TIMEOUT=64,SINK_STALL_EN=1'b1,SINK_STALL_PERIOD=4,SINK_STALL_READY=1) .dut.u_fifo  File: /get/work/krishna.vardhan/git_trees/mtp_pcie_axi/pcie_axi_dma_latency/design/rtl/axis_fifo.sv Line: 165
Warning: [axis_fifo] FIFO full (depth=64) — upstream back-pressured at t=18935000
Time: 18935 ns  Iteration: 0  Process: /tb_pcie_axi_dma(TB_SCENARIO=2,FIFO_DEPTH=64,BATCH_COUNT=4,BATCH_TIMEOUT=64,SINK_STALL_EN=1'b1,SINK_STALL_PERIOD=4,SINK_STALL_READY=1)/dut/u_fifo/Always163_9  Scope: \tb_pcie_axi_dma(TB_SCENARIO=2,FIFO_DEPTH=64,BATCH_COUNT=4,BATCH_TIMEOUT=64,SINK_STALL_EN=1'b1,SINK_STALL_PERIOD=4,SINK_STALL_READY=1) .dut.u_fifo  File: /get/work/krishna.vardhan/git_trees/mtp_pcie_axi/pcie_axi_dma_latency/design/rtl/axis_fifo.sv Line: 165
Warning: [axis_fifo] FIFO full (depth=64) — upstream back-pressured at t=18955000
Time: 18955 ns  Iteration: 0  Process: /tb_pcie_axi_dma(TB_SCENARIO=2,FIFO_DEPTH=64,BATCH_COUNT=4,BATCH_TIMEOUT=64,SINK_STALL_EN=1'b1,SINK_STALL_PERIOD=4,SINK_STALL_READY=1)/dut/u_fifo/Always163_9  Scope: \tb_pcie_axi_dma(TB_SCENARIO=2,FIFO_DEPTH=64,BATCH_COUNT=4,BATCH_TIMEOUT=64,SINK_STALL_EN=1'b1,SINK_STALL_PERIOD=4,SINK_STALL_READY=1) .dut.u_fifo  File: /get/work/krishna.vardhan/git_trees/mtp_pcie_axi/pcie_axi_dma_latency/design/rtl/axis_fifo.sv Line: 165
Warning: [axis_fifo] FIFO full (depth=64) — upstream back-pressured at t=18965000
Time: 18965 ns  Iteration: 0  Process: /tb_pcie_axi_dma(TB_SCENARIO=2,FIFO_DEPTH=64,BATCH_COUNT=4,BATCH_TIMEOUT=64,SINK_STALL_EN=1'b1,SINK_STALL_PERIOD=4,SINK_STALL_READY=1)/dut/u_fifo/Always163_9  Scope: \tb_pcie_axi_dma(TB_SCENARIO=2,FIFO_DEPTH=64,BATCH_COUNT=4,BATCH_TIMEOUT=64,SINK_STALL_EN=1'b1,SINK_STALL_PERIOD=4,SINK_STALL_READY=1) .dut.u_fifo  File: /get/work/krishna.vardhan/git_trees/mtp_pcie_axi/pcie_axi_dma_latency/design/rtl/axis_fifo.sv Line: 165
Warning: [axis_fifo] FIFO full (depth=64) — upstream back-pressured at t=18975000
Time: 18975 ns  Iteration: 0  Process: /tb_pcie_axi_dma(TB_SCENARIO=2,FIFO_DEPTH=64,BATCH_COUNT=4,BATCH_TIMEOUT=64,SINK_STALL_EN=1'b1,SINK_STALL_PERIOD=4,SINK_STALL_READY=1)/dut/u_fifo/Always163_9  Scope: \tb_pcie_axi_dma(TB_SCENARIO=2,FIFO_DEPTH=64,BATCH_COUNT=4,BATCH_TIMEOUT=64,SINK_STALL_EN=1'b1,SINK_STALL_PERIOD=4,SINK_STALL_READY=1) .dut.u_fifo  File: /get/work/krishna.vardhan/git_trees/mtp_pcie_axi/pcie_axi_dma_latency/design/rtl/axis_fifo.sv Line: 165
Warning: [axis_fifo] FIFO full (depth=64) — upstream back-pressured at t=18995000
Time: 18995 ns  Iteration: 0  Process: /tb_pcie_axi_dma(TB_SCENARIO=2,FIFO_DEPTH=64,BATCH_COUNT=4,BATCH_TIMEOUT=64,SINK_STALL_EN=1'b1,SINK_STALL_PERIOD=4,SINK_STALL_READY=1)/dut/u_fifo/Always163_9  Scope: \tb_pcie_axi_dma(TB_SCENARIO=2,FIFO_DEPTH=64,BATCH_COUNT=4,BATCH_TIMEOUT=64,SINK_STALL_EN=1'b1,SINK_STALL_PERIOD=4,SINK_STALL_READY=1) .dut.u_fifo  File: /get/work/krishna.vardhan/git_trees/mtp_pcie_axi/pcie_axi_dma_latency/design/rtl/axis_fifo.sv Line: 165
Warning: [axis_fifo] FIFO full (depth=64) — upstream back-pressured at t=19005000
Time: 19005 ns  Iteration: 0  Process: /tb_pcie_axi_dma(TB_SCENARIO=2,FIFO_DEPTH=64,BATCH_COUNT=4,BATCH_TIMEOUT=64,SINK_STALL_EN=1'b1,SINK_STALL_PERIOD=4,SINK_STALL_READY=1)/dut/u_fifo/Always163_9  Scope: \tb_pcie_axi_dma(TB_SCENARIO=2,FIFO_DEPTH=64,BATCH_COUNT=4,BATCH_TIMEOUT=64,SINK_STALL_EN=1'b1,SINK_STALL_PERIOD=4,SINK_STALL_READY=1) .dut.u_fifo  File: /get/work/krishna.vardhan/git_trees/mtp_pcie_axi/pcie_axi_dma_latency/design/rtl/axis_fifo.sv Line: 165
Warning: [axis_fifo] FIFO full (depth=64) — upstream back-pressured at t=19015000
Time: 19015 ns  Iteration: 0  Process: /tb_pcie_axi_dma(TB_SCENARIO=2,FIFO_DEPTH=64,BATCH_COUNT=4,BATCH_TIMEOUT=64,SINK_STALL_EN=1'b1,SINK_STALL_PERIOD=4,SINK_STALL_READY=1)/dut/u_fifo/Always163_9  Scope: \tb_pcie_axi_dma(TB_SCENARIO=2,FIFO_DEPTH=64,BATCH_COUNT=4,BATCH_TIMEOUT=64,SINK_STALL_EN=1'b1,SINK_STALL_PERIOD=4,SINK_STALL_READY=1) .dut.u_fifo  File: /get/work/krishna.vardhan/git_trees/mtp_pcie_axi/pcie_axi_dma_latency/design/rtl/axis_fifo.sv Line: 165
Warning: [axis_fifo] FIFO full (depth=64) — upstream back-pressured at t=19035000
Time: 19035 ns  Iteration: 0  Process: /tb_pcie_axi_dma(TB_SCENARIO=2,FIFO_DEPTH=64,BATCH_COUNT=4,BATCH_TIMEOUT=64,SINK_STALL_EN=1'b1,SINK_STALL_PERIOD=4,SINK_STALL_READY=1)/dut/u_fifo/Always163_9  Scope: \tb_pcie_axi_dma(TB_SCENARIO=2,FIFO_DEPTH=64,BATCH_COUNT=4,BATCH_TIMEOUT=64,SINK_STALL_EN=1'b1,SINK_STALL_PERIOD=4,SINK_STALL_READY=1) .dut.u_fifo  File: /get/work/krishna.vardhan/git_trees/mtp_pcie_axi/pcie_axi_dma_latency/design/rtl/axis_fifo.sv Line: 165
Warning: [axis_fifo] FIFO full (depth=64) — upstream back-pressured at t=19045000
Time: 19045 ns  Iteration: 0  Process: /tb_pcie_axi_dma(TB_SCENARIO=2,FIFO_DEPTH=64,BATCH_COUNT=4,BATCH_TIMEOUT=64,SINK_STALL_EN=1'b1,SINK_STALL_PERIOD=4,SINK_STALL_READY=1)/dut/u_fifo/Always163_9  Scope: \tb_pcie_axi_dma(TB_SCENARIO=2,FIFO_DEPTH=64,BATCH_COUNT=4,BATCH_TIMEOUT=64,SINK_STALL_EN=1'b1,SINK_STALL_PERIOD=4,SINK_STALL_READY=1) .dut.u_fifo  File: /get/work/krishna.vardhan/git_trees/mtp_pcie_axi/pcie_axi_dma_latency/design/rtl/axis_fifo.sv Line: 165
Warning: [axis_fifo] FIFO full (depth=64) — upstream back-pressured at t=19055000
Time: 19055 ns  Iteration: 0  Process: /tb_pcie_axi_dma(TB_SCENARIO=2,FIFO_DEPTH=64,BATCH_COUNT=4,BATCH_TIMEOUT=64,SINK_STALL_EN=1'b1,SINK_STALL_PERIOD=4,SINK_STALL_READY=1)/dut/u_fifo/Always163_9  Scope: \tb_pcie_axi_dma(TB_SCENARIO=2,FIFO_DEPTH=64,BATCH_COUNT=4,BATCH_TIMEOUT=64,SINK_STALL_EN=1'b1,SINK_STALL_PERIOD=4,SINK_STALL_READY=1) .dut.u_fifo  File: /get/work/krishna.vardhan/git_trees/mtp_pcie_axi/pcie_axi_dma_latency/design/rtl/axis_fifo.sv Line: 165
Warning: [axis_fifo] FIFO full (depth=64) — upstream back-pressured at t=19075000
Time: 19075 ns  Iteration: 0  Process: /tb_pcie_axi_dma(TB_SCENARIO=2,FIFO_DEPTH=64,BATCH_COUNT=4,BATCH_TIMEOUT=64,SINK_STALL_EN=1'b1,SINK_STALL_PERIOD=4,SINK_STALL_READY=1)/dut/u_fifo/Always163_9  Scope: \tb_pcie_axi_dma(TB_SCENARIO=2,FIFO_DEPTH=64,BATCH_COUNT=4,BATCH_TIMEOUT=64,SINK_STALL_EN=1'b1,SINK_STALL_PERIOD=4,SINK_STALL_READY=1) .dut.u_fifo  File: /get/work/krishna.vardhan/git_trees/mtp_pcie_axi/pcie_axi_dma_latency/design/rtl/axis_fifo.sv Line: 165
Warning: [axis_fifo] FIFO full (depth=64) — upstream back-pressured at t=19085000
Time: 19085 ns  Iteration: 0  Process: /tb_pcie_axi_dma(TB_SCENARIO=2,FIFO_DEPTH=64,BATCH_COUNT=4,BATCH_TIMEOUT=64,SINK_STALL_EN=1'b1,SINK_STALL_PERIOD=4,SINK_STALL_READY=1)/dut/u_fifo/Always163_9  Scope: \tb_pcie_axi_dma(TB_SCENARIO=2,FIFO_DEPTH=64,BATCH_COUNT=4,BATCH_TIMEOUT=64,SINK_STALL_EN=1'b1,SINK_STALL_PERIOD=4,SINK_STALL_READY=1) .dut.u_fifo  File: /get/work/krishna.vardhan/git_trees/mtp_pcie_axi/pcie_axi_dma_latency/design/rtl/axis_fifo.sv Line: 165
Warning: [axis_fifo] FIFO full (depth=64) — upstream back-pressured at t=19095000
Time: 19095 ns  Iteration: 0  Process: /tb_pcie_axi_dma(TB_SCENARIO=2,FIFO_DEPTH=64,BATCH_COUNT=4,BATCH_TIMEOUT=64,SINK_STALL_EN=1'b1,SINK_STALL_PERIOD=4,SINK_STALL_READY=1)/dut/u_fifo/Always163_9  Scope: \tb_pcie_axi_dma(TB_SCENARIO=2,FIFO_DEPTH=64,BATCH_COUNT=4,BATCH_TIMEOUT=64,SINK_STALL_EN=1'b1,SINK_STALL_PERIOD=4,SINK_STALL_READY=1) .dut.u_fifo  File: /get/work/krishna.vardhan/git_trees/mtp_pcie_axi/pcie_axi_dma_latency/design/rtl/axis_fifo.sv Line: 165
Warning: [axis_fifo] FIFO full (depth=64) — upstream back-pressured at t=19115000
Time: 19115 ns  Iteration: 0  Process: /tb_pcie_axi_dma(TB_SCENARIO=2,FIFO_DEPTH=64,BATCH_COUNT=4,BATCH_TIMEOUT=64,SINK_STALL_EN=1'b1,SINK_STALL_PERIOD=4,SINK_STALL_READY=1)/dut/u_fifo/Always163_9  Scope: \tb_pcie_axi_dma(TB_SCENARIO=2,FIFO_DEPTH=64,BATCH_COUNT=4,BATCH_TIMEOUT=64,SINK_STALL_EN=1'b1,SINK_STALL_PERIOD=4,SINK_STALL_READY=1) .dut.u_fifo  File: /get/work/krishna.vardhan/git_trees/mtp_pcie_axi/pcie_axi_dma_latency/design/rtl/axis_fifo.sv Line: 165
Warning: [axis_fifo] FIFO full (depth=64) — upstream back-pressured at t=19125000
Time: 19125 ns  Iteration: 0  Process: /tb_pcie_axi_dma(TB_SCENARIO=2,FIFO_DEPTH=64,BATCH_COUNT=4,BATCH_TIMEOUT=64,SINK_STALL_EN=1'b1,SINK_STALL_PERIOD=4,SINK_STALL_READY=1)/dut/u_fifo/Always163_9  Scope: \tb_pcie_axi_dma(TB_SCENARIO=2,FIFO_DEPTH=64,BATCH_COUNT=4,BATCH_TIMEOUT=64,SINK_STALL_EN=1'b1,SINK_STALL_PERIOD=4,SINK_STALL_READY=1) .dut.u_fifo  File: /get/work/krishna.vardhan/git_trees/mtp_pcie_axi/pcie_axi_dma_latency/design/rtl/axis_fifo.sv Line: 165
Warning: [axis_fifo] FIFO full (depth=64) — upstream back-pressured at t=19135000
Time: 19135 ns  Iteration: 0  Process: /tb_pcie_axi_dma(TB_SCENARIO=2,FIFO_DEPTH=64,BATCH_COUNT=4,BATCH_TIMEOUT=64,SINK_STALL_EN=1'b1,SINK_STALL_PERIOD=4,SINK_STALL_READY=1)/dut/u_fifo/Always163_9  Scope: \tb_pcie_axi_dma(TB_SCENARIO=2,FIFO_DEPTH=64,BATCH_COUNT=4,BATCH_TIMEOUT=64,SINK_STALL_EN=1'b1,SINK_STALL_PERIOD=4,SINK_STALL_READY=1) .dut.u_fifo  File: /get/work/krishna.vardhan/git_trees/mtp_pcie_axi/pcie_axi_dma_latency/design/rtl/axis_fifo.sv Line: 165
Warning: [axis_fifo] FIFO full (depth=64) — upstream back-pressured at t=19155000
Time: 19155 ns  Iteration: 0  Process: /tb_pcie_axi_dma(TB_SCENARIO=2,FIFO_DEPTH=64,BATCH_COUNT=4,BATCH_TIMEOUT=64,SINK_STALL_EN=1'b1,SINK_STALL_PERIOD=4,SINK_STALL_READY=1)/dut/u_fifo/Always163_9  Scope: \tb_pcie_axi_dma(TB_SCENARIO=2,FIFO_DEPTH=64,BATCH_COUNT=4,BATCH_TIMEOUT=64,SINK_STALL_EN=1'b1,SINK_STALL_PERIOD=4,SINK_STALL_READY=1) .dut.u_fifo  File: /get/work/krishna.vardhan/git_trees/mtp_pcie_axi/pcie_axi_dma_latency/design/rtl/axis_fifo.sv Line: 165
Warning: [axis_fifo] FIFO full (depth=64) — upstream back-pressured at t=19165000
Time: 19165 ns  Iteration: 0  Process: /tb_pcie_axi_dma(TB_SCENARIO=2,FIFO_DEPTH=64,BATCH_COUNT=4,BATCH_TIMEOUT=64,SINK_STALL_EN=1'b1,SINK_STALL_PERIOD=4,SINK_STALL_READY=1)/dut/u_fifo/Always163_9  Scope: \tb_pcie_axi_dma(TB_SCENARIO=2,FIFO_DEPTH=64,BATCH_COUNT=4,BATCH_TIMEOUT=64,SINK_STALL_EN=1'b1,SINK_STALL_PERIOD=4,SINK_STALL_READY=1) .dut.u_fifo  File: /get/work/krishna.vardhan/git_trees/mtp_pcie_axi/pcie_axi_dma_latency/design/rtl/axis_fifo.sv Line: 165
Warning: [axis_fifo] FIFO full (depth=64) — upstream back-pressured at t=19175000
Time: 19175 ns  Iteration: 0  Process: /tb_pcie_axi_dma(TB_SCENARIO=2,FIFO_DEPTH=64,BATCH_COUNT=4,BATCH_TIMEOUT=64,SINK_STALL_EN=1'b1,SINK_STALL_PERIOD=4,SINK_STALL_READY=1)/dut/u_fifo/Always163_9  Scope: \tb_pcie_axi_dma(TB_SCENARIO=2,FIFO_DEPTH=64,BATCH_COUNT=4,BATCH_TIMEOUT=64,SINK_STALL_EN=1'b1,SINK_STALL_PERIOD=4,SINK_STALL_READY=1) .dut.u_fifo  File: /get/work/krishna.vardhan/git_trees/mtp_pcie_axi/pcie_axi_dma_latency/design/rtl/axis_fifo.sv Line: 165
Warning: [axis_fifo] FIFO full (depth=64) — upstream back-pressured at t=19195000
Time: 19195 ns  Iteration: 0  Process: /tb_pcie_axi_dma(TB_SCENARIO=2,FIFO_DEPTH=64,BATCH_COUNT=4,BATCH_TIMEOUT=64,SINK_STALL_EN=1'b1,SINK_STALL_PERIOD=4,SINK_STALL_READY=1)/dut/u_fifo/Always163_9  Scope: \tb_pcie_axi_dma(TB_SCENARIO=2,FIFO_DEPTH=64,BATCH_COUNT=4,BATCH_TIMEOUT=64,SINK_STALL_EN=1'b1,SINK_STALL_PERIOD=4,SINK_STALL_READY=1) .dut.u_fifo  File: /get/work/krishna.vardhan/git_trees/mtp_pcie_axi/pcie_axi_dma_latency/design/rtl/axis_fifo.sv Line: 165
Warning: [axis_fifo] FIFO full (depth=64) — upstream back-pressured at t=19205000
Time: 19205 ns  Iteration: 0  Process: /tb_pcie_axi_dma(TB_SCENARIO=2,FIFO_DEPTH=64,BATCH_COUNT=4,BATCH_TIMEOUT=64,SINK_STALL_EN=1'b1,SINK_STALL_PERIOD=4,SINK_STALL_READY=1)/dut/u_fifo/Always163_9  Scope: \tb_pcie_axi_dma(TB_SCENARIO=2,FIFO_DEPTH=64,BATCH_COUNT=4,BATCH_TIMEOUT=64,SINK_STALL_EN=1'b1,SINK_STALL_PERIOD=4,SINK_STALL_READY=1) .dut.u_fifo  File: /get/work/krishna.vardhan/git_trees/mtp_pcie_axi/pcie_axi_dma_latency/design/rtl/axis_fifo.sv Line: 165
Warning: [axis_fifo] FIFO full (depth=64) — upstream back-pressured at t=19215000
Time: 19215 ns  Iteration: 0  Process: /tb_pcie_axi_dma(TB_SCENARIO=2,FIFO_DEPTH=64,BATCH_COUNT=4,BATCH_TIMEOUT=64,SINK_STALL_EN=1'b1,SINK_STALL_PERIOD=4,SINK_STALL_READY=1)/dut/u_fifo/Always163_9  Scope: \tb_pcie_axi_dma(TB_SCENARIO=2,FIFO_DEPTH=64,BATCH_COUNT=4,BATCH_TIMEOUT=64,SINK_STALL_EN=1'b1,SINK_STALL_PERIOD=4,SINK_STALL_READY=1) .dut.u_fifo  File: /get/work/krishna.vardhan/git_trees/mtp_pcie_axi/pcie_axi_dma_latency/design/rtl/axis_fifo.sv Line: 165
Warning: [axis_fifo] FIFO full (depth=64) — upstream back-pressured at t=19235000
Time: 19235 ns  Iteration: 0  Process: /tb_pcie_axi_dma(TB_SCENARIO=2,FIFO_DEPTH=64,BATCH_COUNT=4,BATCH_TIMEOUT=64,SINK_STALL_EN=1'b1,SINK_STALL_PERIOD=4,SINK_STALL_READY=1)/dut/u_fifo/Always163_9  Scope: \tb_pcie_axi_dma(TB_SCENARIO=2,FIFO_DEPTH=64,BATCH_COUNT=4,BATCH_TIMEOUT=64,SINK_STALL_EN=1'b1,SINK_STALL_PERIOD=4,SINK_STALL_READY=1) .dut.u_fifo  File: /get/work/krishna.vardhan/git_trees/mtp_pcie_axi/pcie_axi_dma_latency/design/rtl/axis_fifo.sv Line: 165
Warning: [axis_fifo] FIFO full (depth=64) — upstream back-pressured at t=19245000
Time: 19245 ns  Iteration: 0  Process: /tb_pcie_axi_dma(TB_SCENARIO=2,FIFO_DEPTH=64,BATCH_COUNT=4,BATCH_TIMEOUT=64,SINK_STALL_EN=1'b1,SINK_STALL_PERIOD=4,SINK_STALL_READY=1)/dut/u_fifo/Always163_9  Scope: \tb_pcie_axi_dma(TB_SCENARIO=2,FIFO_DEPTH=64,BATCH_COUNT=4,BATCH_TIMEOUT=64,SINK_STALL_EN=1'b1,SINK_STALL_PERIOD=4,SINK_STALL_READY=1) .dut.u_fifo  File: /get/work/krishna.vardhan/git_trees/mtp_pcie_axi/pcie_axi_dma_latency/design/rtl/axis_fifo.sv Line: 165
Warning: [axis_fifo] FIFO full (depth=64) — upstream back-pressured at t=19255000
Time: 19255 ns  Iteration: 0  Process: /tb_pcie_axi_dma(TB_SCENARIO=2,FIFO_DEPTH=64,BATCH_COUNT=4,BATCH_TIMEOUT=64,SINK_STALL_EN=1'b1,SINK_STALL_PERIOD=4,SINK_STALL_READY=1)/dut/u_fifo/Always163_9  Scope: \tb_pcie_axi_dma(TB_SCENARIO=2,FIFO_DEPTH=64,BATCH_COUNT=4,BATCH_TIMEOUT=64,SINK_STALL_EN=1'b1,SINK_STALL_PERIOD=4,SINK_STALL_READY=1) .dut.u_fifo  File: /get/work/krishna.vardhan/git_trees/mtp_pcie_axi/pcie_axi_dma_latency/design/rtl/axis_fifo.sv Line: 165
Warning: [axis_fifo] FIFO full (depth=64) — upstream back-pressured at t=19275000
Time: 19275 ns  Iteration: 0  Process: /tb_pcie_axi_dma(TB_SCENARIO=2,FIFO_DEPTH=64,BATCH_COUNT=4,BATCH_TIMEOUT=64,SINK_STALL_EN=1'b1,SINK_STALL_PERIOD=4,SINK_STALL_READY=1)/dut/u_fifo/Always163_9  Scope: \tb_pcie_axi_dma(TB_SCENARIO=2,FIFO_DEPTH=64,BATCH_COUNT=4,BATCH_TIMEOUT=64,SINK_STALL_EN=1'b1,SINK_STALL_PERIOD=4,SINK_STALL_READY=1) .dut.u_fifo  File: /get/work/krishna.vardhan/git_trees/mtp_pcie_axi/pcie_axi_dma_latency/design/rtl/axis_fifo.sv Line: 165
Warning: [axis_fifo] FIFO full (depth=64) — upstream back-pressured at t=19285000
Time: 19285 ns  Iteration: 0  Process: /tb_pcie_axi_dma(TB_SCENARIO=2,FIFO_DEPTH=64,BATCH_COUNT=4,BATCH_TIMEOUT=64,SINK_STALL_EN=1'b1,SINK_STALL_PERIOD=4,SINK_STALL_READY=1)/dut/u_fifo/Always163_9  Scope: \tb_pcie_axi_dma(TB_SCENARIO=2,FIFO_DEPTH=64,BATCH_COUNT=4,BATCH_TIMEOUT=64,SINK_STALL_EN=1'b1,SINK_STALL_PERIOD=4,SINK_STALL_READY=1) .dut.u_fifo  File: /get/work/krishna.vardhan/git_trees/mtp_pcie_axi/pcie_axi_dma_latency/design/rtl/axis_fifo.sv Line: 165
Warning: [axis_fifo] FIFO full (depth=64) — upstream back-pressured at t=19295000
Time: 19295 ns  Iteration: 0  Process: /tb_pcie_axi_dma(TB_SCENARIO=2,FIFO_DEPTH=64,BATCH_COUNT=4,BATCH_TIMEOUT=64,SINK_STALL_EN=1'b1,SINK_STALL_PERIOD=4,SINK_STALL_READY=1)/dut/u_fifo/Always163_9  Scope: \tb_pcie_axi_dma(TB_SCENARIO=2,FIFO_DEPTH=64,BATCH_COUNT=4,BATCH_TIMEOUT=64,SINK_STALL_EN=1'b1,SINK_STALL_PERIOD=4,SINK_STALL_READY=1) .dut.u_fifo  File: /get/work/krishna.vardhan/git_trees/mtp_pcie_axi/pcie_axi_dma_latency/design/rtl/axis_fifo.sv Line: 165
Warning: [axis_fifo] FIFO full (depth=64) — upstream back-pressured at t=19315000
Time: 19315 ns  Iteration: 0  Process: /tb_pcie_axi_dma(TB_SCENARIO=2,FIFO_DEPTH=64,BATCH_COUNT=4,BATCH_TIMEOUT=64,SINK_STALL_EN=1'b1,SINK_STALL_PERIOD=4,SINK_STALL_READY=1)/dut/u_fifo/Always163_9  Scope: \tb_pcie_axi_dma(TB_SCENARIO=2,FIFO_DEPTH=64,BATCH_COUNT=4,BATCH_TIMEOUT=64,SINK_STALL_EN=1'b1,SINK_STALL_PERIOD=4,SINK_STALL_READY=1) .dut.u_fifo  File: /get/work/krishna.vardhan/git_trees/mtp_pcie_axi/pcie_axi_dma_latency/design/rtl/axis_fifo.sv Line: 165
Warning: [axis_fifo] FIFO full (depth=64) — upstream back-pressured at t=19325000
Time: 19325 ns  Iteration: 0  Process: /tb_pcie_axi_dma(TB_SCENARIO=2,FIFO_DEPTH=64,BATCH_COUNT=4,BATCH_TIMEOUT=64,SINK_STALL_EN=1'b1,SINK_STALL_PERIOD=4,SINK_STALL_READY=1)/dut/u_fifo/Always163_9  Scope: \tb_pcie_axi_dma(TB_SCENARIO=2,FIFO_DEPTH=64,BATCH_COUNT=4,BATCH_TIMEOUT=64,SINK_STALL_EN=1'b1,SINK_STALL_PERIOD=4,SINK_STALL_READY=1) .dut.u_fifo  File: /get/work/krishna.vardhan/git_trees/mtp_pcie_axi/pcie_axi_dma_latency/design/rtl/axis_fifo.sv Line: 165
Warning: [axis_fifo] FIFO full (depth=64) — upstream back-pressured at t=19335000
Time: 19335 ns  Iteration: 0  Process: /tb_pcie_axi_dma(TB_SCENARIO=2,FIFO_DEPTH=64,BATCH_COUNT=4,BATCH_TIMEOUT=64,SINK_STALL_EN=1'b1,SINK_STALL_PERIOD=4,SINK_STALL_READY=1)/dut/u_fifo/Always163_9  Scope: \tb_pcie_axi_dma(TB_SCENARIO=2,FIFO_DEPTH=64,BATCH_COUNT=4,BATCH_TIMEOUT=64,SINK_STALL_EN=1'b1,SINK_STALL_PERIOD=4,SINK_STALL_READY=1) .dut.u_fifo  File: /get/work/krishna.vardhan/git_trees/mtp_pcie_axi/pcie_axi_dma_latency/design/rtl/axis_fifo.sv Line: 165
[sink]  t=21895000  pkt_id=4  size=1024B  count=5
[latmon] pkt_id=4  size=1024B  latency= 1053 cyc  eff= 0.97 B/cyc
[latmon]  ↳ est: PCIe=404  DMA=264  other=385  total_measured=1053
[RESULT]       4 |     1024 |          1053 |               0.97 |        64 |   YES | BASELINE,FIFO=64,STALL=1/4
[dma_model] t=42785000  pkt_id=5  descriptor setup done  (SETUP_CYCLES=8)
Warning: [axis_fifo] FIFO full (depth=64) — upstream back-pressured at t=43645000
Time: 43645 ns  Iteration: 0  Process: /tb_pcie_axi_dma(TB_SCENARIO=2,FIFO_DEPTH=64,BATCH_COUNT=4,BATCH_TIMEOUT=64,SINK_STALL_EN=1'b1,SINK_STALL_PERIOD=4,SINK_STALL_READY=1)/dut/u_fifo/Always163_9  Scope: \tb_pcie_axi_dma(TB_SCENARIO=2,FIFO_DEPTH=64,BATCH_COUNT=4,BATCH_TIMEOUT=64,SINK_STALL_EN=1'b1,SINK_STALL_PERIOD=4,SINK_STALL_READY=1) .dut.u_fifo  File: /get/work/krishna.vardhan/git_trees/mtp_pcie_axi/pcie_axi_dma_latency/design/rtl/axis_fifo.sv Line: 165
Warning: [axis_fifo] FIFO full (depth=64) — upstream back-pressured at t=43655000
Time: 43655 ns  Iteration: 0  Process: /tb_pcie_axi_dma(TB_SCENARIO=2,FIFO_DEPTH=64,BATCH_COUNT=4,BATCH_TIMEOUT=64,SINK_STALL_EN=1'b1,SINK_STALL_PERIOD=4,SINK_STALL_READY=1)/dut/u_fifo/Always163_9  Scope: \tb_pcie_axi_dma(TB_SCENARIO=2,FIFO_DEPTH=64,BATCH_COUNT=4,BATCH_TIMEOUT=64,SINK_STALL_EN=1'b1,SINK_STALL_PERIOD=4,SINK_STALL_READY=1) .dut.u_fifo  File: /get/work/krishna.vardhan/git_trees/mtp_pcie_axi/pcie_axi_dma_latency/design/rtl/axis_fifo.sv Line: 165
Warning: [axis_fifo] FIFO full (depth=64) — upstream back-pressured at t=43675000
Time: 43675 ns  Iteration: 0  Process: /tb_pcie_axi_dma(TB_SCENARIO=2,FIFO_DEPTH=64,BATCH_COUNT=4,BATCH_TIMEOUT=64,SINK_STALL_EN=1'b1,SINK_STALL_PERIOD=4,SINK_STALL_READY=1)/dut/u_fifo/Always163_9  Scope: \tb_pcie_axi_dma(TB_SCENARIO=2,FIFO_DEPTH=64,BATCH_COUNT=4,BATCH_TIMEOUT=64,SINK_STALL_EN=1'b1,SINK_STALL_PERIOD=4,SINK_STALL_READY=1) .dut.u_fifo  File: /get/work/krishna.vardhan/git_trees/mtp_pcie_axi/pcie_axi_dma_latency/design/rtl/axis_fifo.sv Line: 165
Warning: [axis_fifo] FIFO full (depth=64) — upstream back-pressured at t=43685000
Time: 43685 ns  Iteration: 0  Process: /tb_pcie_axi_dma(TB_SCENARIO=2,FIFO_DEPTH=64,BATCH_COUNT=4,BATCH_TIMEOUT=64,SINK_STALL_EN=1'b1,SINK_STALL_PERIOD=4,SINK_STALL_READY=1)/dut/u_fifo/Always163_9  Scope: \tb_pcie_axi_dma(TB_SCENARIO=2,FIFO_DEPTH=64,BATCH_COUNT=4,BATCH_TIMEOUT=64,SINK_STALL_EN=1'b1,SINK_STALL_PERIOD=4,SINK_STALL_READY=1) .dut.u_fifo  File: /get/work/krishna.vardhan/git_trees/mtp_pcie_axi/pcie_axi_dma_latency/design/rtl/axis_fifo.sv Line: 165
Warning: [axis_fifo] FIFO full (depth=64) — upstream back-pressured at t=43695000
Time: 43695 ns  Iteration: 0  Process: /tb_pcie_axi_dma(TB_SCENARIO=2,FIFO_DEPTH=64,BATCH_COUNT=4,BATCH_TIMEOUT=64,SINK_STALL_EN=1'b1,SINK_STALL_PERIOD=4,SINK_STALL_READY=1)/dut/u_fifo/Always163_9  Scope: \tb_pcie_axi_dma(TB_SCENARIO=2,FIFO_DEPTH=64,BATCH_COUNT=4,BATCH_TIMEOUT=64,SINK_STALL_EN=1'b1,SINK_STALL_PERIOD=4,SINK_STALL_READY=1) .dut.u_fifo  File: /get/work/krishna.vardhan/git_trees/mtp_pcie_axi/pcie_axi_dma_latency/design/rtl/axis_fifo.sv Line: 165
Warning: [axis_fifo] FIFO full (depth=64) — upstream back-pressured at t=43715000
Time: 43715 ns  Iteration: 0  Process: /tb_pcie_axi_dma(TB_SCENARIO=2,FIFO_DEPTH=64,BATCH_COUNT=4,BATCH_TIMEOUT=64,SINK_STALL_EN=1'b1,SINK_STALL_PERIOD=4,SINK_STALL_READY=1)/dut/u_fifo/Always163_9  Scope: \tb_pcie_axi_dma(TB_SCENARIO=2,FIFO_DEPTH=64,BATCH_COUNT=4,BATCH_TIMEOUT=64,SINK_STALL_EN=1'b1,SINK_STALL_PERIOD=4,SINK_STALL_READY=1) .dut.u_fifo  File: /get/work/krishna.vardhan/git_trees/mtp_pcie_axi/pcie_axi_dma_latency/design/rtl/axis_fifo.sv Line: 165
Warning: [axis_fifo] FIFO full (depth=64) — upstream back-pressured at t=43725000
Time: 43725 ns  Iteration: 0  Process: /tb_pcie_axi_dma(TB_SCENARIO=2,FIFO_DEPTH=64,BATCH_COUNT=4,BATCH_TIMEOUT=64,SINK_STALL_EN=1'b1,SINK_STALL_PERIOD=4,SINK_STALL_READY=1)/dut/u_fifo/Always163_9  Scope: \tb_pcie_axi_dma(TB_SCENARIO=2,FIFO_DEPTH=64,BATCH_COUNT=4,BATCH_TIMEOUT=64,SINK_STALL_EN=1'b1,SINK_STALL_PERIOD=4,SINK_STALL_READY=1) .dut.u_fifo  File: /get/work/krishna.vardhan/git_trees/mtp_pcie_axi/pcie_axi_dma_latency/design/rtl/axis_fifo.sv Line: 165
Warning: [axis_fifo] FIFO full (depth=64) — upstream back-pressured at t=43735000
Time: 43735 ns  Iteration: 0  Process: /tb_pcie_axi_dma(TB_SCENARIO=2,FIFO_DEPTH=64,BATCH_COUNT=4,BATCH_TIMEOUT=64,SINK_STALL_EN=1'b1,SINK_STALL_PERIOD=4,SINK_STALL_READY=1)/dut/u_fifo/Always163_9  Scope: \tb_pcie_axi_dma(TB_SCENARIO=2,FIFO_DEPTH=64,BATCH_COUNT=4,BATCH_TIMEOUT=64,SINK_STALL_EN=1'b1,SINK_STALL_PERIOD=4,SINK_STALL_READY=1) .dut.u_fifo  File: /get/work/krishna.vardhan/git_trees/mtp_pcie_axi/pcie_axi_dma_latency/design/rtl/axis_fifo.sv Line: 165
Warning: [axis_fifo] FIFO full (depth=64) — upstream back-pressured at t=43755000
Time: 43755 ns  Iteration: 0  Process: /tb_pcie_axi_dma(TB_SCENARIO=2,FIFO_DEPTH=64,BATCH_COUNT=4,BATCH_TIMEOUT=64,SINK_STALL_EN=1'b1,SINK_STALL_PERIOD=4,SINK_STALL_READY=1)/dut/u_fifo/Always163_9  Scope: \tb_pcie_axi_dma(TB_SCENARIO=2,FIFO_DEPTH=64,BATCH_COUNT=4,BATCH_TIMEOUT=64,SINK_STALL_EN=1'b1,SINK_STALL_PERIOD=4,SINK_STALL_READY=1) .dut.u_fifo  File: /get/work/krishna.vardhan/git_trees/mtp_pcie_axi/pcie_axi_dma_latency/design/rtl/axis_fifo.sv Line: 165
Warning: [axis_fifo] FIFO full (depth=64) — upstream back-pressured at t=43765000
Time: 43765 ns  Iteration: 0  Process: /tb_pcie_axi_dma(TB_SCENARIO=2,FIFO_DEPTH=64,BATCH_COUNT=4,BATCH_TIMEOUT=64,SINK_STALL_EN=1'b1,SINK_STALL_PERIOD=4,SINK_STALL_READY=1)/dut/u_fifo/Always163_9  Scope: \tb_pcie_axi_dma(TB_SCENARIO=2,FIFO_DEPTH=64,BATCH_COUNT=4,BATCH_TIMEOUT=64,SINK_STALL_EN=1'b1,SINK_STALL_PERIOD=4,SINK_STALL_READY=1) .dut.u_fifo  File: /get/work/krishna.vardhan/git_trees/mtp_pcie_axi/pcie_axi_dma_latency/design/rtl/axis_fifo.sv Line: 165
Warning: [axis_fifo] FIFO full (depth=64) — upstream back-pressured at t=43775000
Time: 43775 ns  Iteration: 0  Process: /tb_pcie_axi_dma(TB_SCENARIO=2,FIFO_DEPTH=64,BATCH_COUNT=4,BATCH_TIMEOUT=64,SINK_STALL_EN=1'b1,SINK_STALL_PERIOD=4,SINK_STALL_READY=1)/dut/u_fifo/Always163_9  Scope: \tb_pcie_axi_dma(TB_SCENARIO=2,FIFO_DEPTH=64,BATCH_COUNT=4,BATCH_TIMEOUT=64,SINK_STALL_EN=1'b1,SINK_STALL_PERIOD=4,SINK_STALL_READY=1) .dut.u_fifo  File: /get/work/krishna.vardhan/git_trees/mtp_pcie_axi/pcie_axi_dma_latency/design/rtl/axis_fifo.sv Line: 165
Warning: [axis_fifo] FIFO full (depth=64) — upstream back-pressured at t=43795000
Time: 43795 ns  Iteration: 0  Process: /tb_pcie_axi_dma(TB_SCENARIO=2,FIFO_DEPTH=64,BATCH_COUNT=4,BATCH_TIMEOUT=64,SINK_STALL_EN=1'b1,SINK_STALL_PERIOD=4,SINK_STALL_READY=1)/dut/u_fifo/Always163_9  Scope: \tb_pcie_axi_dma(TB_SCENARIO=2,FIFO_DEPTH=64,BATCH_COUNT=4,BATCH_TIMEOUT=64,SINK_STALL_EN=1'b1,SINK_STALL_PERIOD=4,SINK_STALL_READY=1) .dut.u_fifo  File: /get/work/krishna.vardhan/git_trees/mtp_pcie_axi/pcie_axi_dma_latency/design/rtl/axis_fifo.sv Line: 165
Warning: [axis_fifo] FIFO full (depth=64) — upstream back-pressured at t=43805000
Time: 43805 ns  Iteration: 0  Process: /tb_pcie_axi_dma(TB_SCENARIO=2,FIFO_DEPTH=64,BATCH_COUNT=4,BATCH_TIMEOUT=64,SINK_STALL_EN=1'b1,SINK_STALL_PERIOD=4,SINK_STALL_READY=1)/dut/u_fifo/Always163_9  Scope: \tb_pcie_axi_dma(TB_SCENARIO=2,FIFO_DEPTH=64,BATCH_COUNT=4,BATCH_TIMEOUT=64,SINK_STALL_EN=1'b1,SINK_STALL_PERIOD=4,SINK_STALL_READY=1) .dut.u_fifo  File: /get/work/krishna.vardhan/git_trees/mtp_pcie_axi/pcie_axi_dma_latency/design/rtl/axis_fifo.sv Line: 165
Warning: [axis_fifo] FIFO full (depth=64) — upstream back-pressured at t=43815000
Time: 43815 ns  Iteration: 0  Process: /tb_pcie_axi_dma(TB_SCENARIO=2,FIFO_DEPTH=64,BATCH_COUNT=4,BATCH_TIMEOUT=64,SINK_STALL_EN=1'b1,SINK_STALL_PERIOD=4,SINK_STALL_READY=1)/dut/u_fifo/Always163_9  Scope: \tb_pcie_axi_dma(TB_SCENARIO=2,FIFO_DEPTH=64,BATCH_COUNT=4,BATCH_TIMEOUT=64,SINK_STALL_EN=1'b1,SINK_STALL_PERIOD=4,SINK_STALL_READY=1) .dut.u_fifo  File: /get/work/krishna.vardhan/git_trees/mtp_pcie_axi/pcie_axi_dma_latency/design/rtl/axis_fifo.sv Line: 165
Warning: [axis_fifo] FIFO full (depth=64) — upstream back-pressured at t=43835000
Time: 43835 ns  Iteration: 0  Process: /tb_pcie_axi_dma(TB_SCENARIO=2,FIFO_DEPTH=64,BATCH_COUNT=4,BATCH_TIMEOUT=64,SINK_STALL_EN=1'b1,SINK_STALL_PERIOD=4,SINK_STALL_READY=1)/dut/u_fifo/Always163_9  Scope: \tb_pcie_axi_dma(TB_SCENARIO=2,FIFO_DEPTH=64,BATCH_COUNT=4,BATCH_TIMEOUT=64,SINK_STALL_EN=1'b1,SINK_STALL_PERIOD=4,SINK_STALL_READY=1) .dut.u_fifo  File: /get/work/krishna.vardhan/git_trees/mtp_pcie_axi/pcie_axi_dma_latency/design/rtl/axis_fifo.sv Line: 165
Warning: [axis_fifo] FIFO full (depth=64) — upstream back-pressured at t=43845000
Time: 43845 ns  Iteration: 0  Process: /tb_pcie_axi_dma(TB_SCENARIO=2,FIFO_DEPTH=64,BATCH_COUNT=4,BATCH_TIMEOUT=64,SINK_STALL_EN=1'b1,SINK_STALL_PERIOD=4,SINK_STALL_READY=1)/dut/u_fifo/Always163_9  Scope: \tb_pcie_axi_dma(TB_SCENARIO=2,FIFO_DEPTH=64,BATCH_COUNT=4,BATCH_TIMEOUT=64,SINK_STALL_EN=1'b1,SINK_STALL_PERIOD=4,SINK_STALL_READY=1) .dut.u_fifo  File: /get/work/krishna.vardhan/git_trees/mtp_pcie_axi/pcie_axi_dma_latency/design/rtl/axis_fifo.sv Line: 165
Warning: [axis_fifo] FIFO full (depth=64) — upstream back-pressured at t=43855000
Time: 43855 ns  Iteration: 0  Process: /tb_pcie_axi_dma(TB_SCENARIO=2,FIFO_DEPTH=64,BATCH_COUNT=4,BATCH_TIMEOUT=64,SINK_STALL_EN=1'b1,SINK_STALL_PERIOD=4,SINK_STALL_READY=1)/dut/u_fifo/Always163_9  Scope: \tb_pcie_axi_dma(TB_SCENARIO=2,FIFO_DEPTH=64,BATCH_COUNT=4,BATCH_TIMEOUT=64,SINK_STALL_EN=1'b1,SINK_STALL_PERIOD=4,SINK_STALL_READY=1) .dut.u_fifo  File: /get/work/krishna.vardhan/git_trees/mtp_pcie_axi/pcie_axi_dma_latency/design/rtl/axis_fifo.sv Line: 165
Warning: [axis_fifo] FIFO full (depth=64) — upstream back-pressured at t=43875000
Time: 43875 ns  Iteration: 0  Process: /tb_pcie_axi_dma(TB_SCENARIO=2,FIFO_DEPTH=64,BATCH_COUNT=4,BATCH_TIMEOUT=64,SINK_STALL_EN=1'b1,SINK_STALL_PERIOD=4,SINK_STALL_READY=1)/dut/u_fifo/Always163_9  Scope: \tb_pcie_axi_dma(TB_SCENARIO=2,FIFO_DEPTH=64,BATCH_COUNT=4,BATCH_TIMEOUT=64,SINK_STALL_EN=1'b1,SINK_STALL_PERIOD=4,SINK_STALL_READY=1) .dut.u_fifo  File: /get/work/krishna.vardhan/git_trees/mtp_pcie_axi/pcie_axi_dma_latency/design/rtl/axis_fifo.sv Line: 165
Warning: [axis_fifo] FIFO full (depth=64) — upstream back-pressured at t=43885000
Time: 43885 ns  Iteration: 0  Process: /tb_pcie_axi_dma(TB_SCENARIO=2,FIFO_DEPTH=64,BATCH_COUNT=4,BATCH_TIMEOUT=64,SINK_STALL_EN=1'b1,SINK_STALL_PERIOD=4,SINK_STALL_READY=1)/dut/u_fifo/Always163_9  Scope: \tb_pcie_axi_dma(TB_SCENARIO=2,FIFO_DEPTH=64,BATCH_COUNT=4,BATCH_TIMEOUT=64,SINK_STALL_EN=1'b1,SINK_STALL_PERIOD=4,SINK_STALL_READY=1) .dut.u_fifo  File: /get/work/krishna.vardhan/git_trees/mtp_pcie_axi/pcie_axi_dma_latency/design/rtl/axis_fifo.sv Line: 165
Warning: [axis_fifo] FIFO full (depth=64) — upstream back-pressured at t=43895000
Time: 43895 ns  Iteration: 0  Process: /tb_pcie_axi_dma(TB_SCENARIO=2,FIFO_DEPTH=64,BATCH_COUNT=4,BATCH_TIMEOUT=64,SINK_STALL_EN=1'b1,SINK_STALL_PERIOD=4,SINK_STALL_READY=1)/dut/u_fifo/Always163_9  Scope: \tb_pcie_axi_dma(TB_SCENARIO=2,FIFO_DEPTH=64,BATCH_COUNT=4,BATCH_TIMEOUT=64,SINK_STALL_EN=1'b1,SINK_STALL_PERIOD=4,SINK_STALL_READY=1) .dut.u_fifo  File: /get/work/krishna.vardhan/git_trees/mtp_pcie_axi/pcie_axi_dma_latency/design/rtl/axis_fifo.sv Line: 165
Warning: [axis_fifo] FIFO full (depth=64) — upstream back-pressured at t=43915000
Time: 43915 ns  Iteration: 0  Process: /tb_pcie_axi_dma(TB_SCENARIO=2,FIFO_DEPTH=64,BATCH_COUNT=4,BATCH_TIMEOUT=64,SINK_STALL_EN=1'b1,SINK_STALL_PERIOD=4,SINK_STALL_READY=1)/dut/u_fifo/Always163_9  Scope: \tb_pcie_axi_dma(TB_SCENARIO=2,FIFO_DEPTH=64,BATCH_COUNT=4,BATCH_TIMEOUT=64,SINK_STALL_EN=1'b1,SINK_STALL_PERIOD=4,SINK_STALL_READY=1) .dut.u_fifo  File: /get/work/krishna.vardhan/git_trees/mtp_pcie_axi/pcie_axi_dma_latency/design/rtl/axis_fifo.sv Line: 165
Warning: [axis_fifo] FIFO full (depth=64) — upstream back-pressured at t=43925000
Time: 43925 ns  Iteration: 0  Process: /tb_pcie_axi_dma(TB_SCENARIO=2,FIFO_DEPTH=64,BATCH_COUNT=4,BATCH_TIMEOUT=64,SINK_STALL_EN=1'b1,SINK_STALL_PERIOD=4,SINK_STALL_READY=1)/dut/u_fifo/Always163_9  Scope: \tb_pcie_axi_dma(TB_SCENARIO=2,FIFO_DEPTH=64,BATCH_COUNT=4,BATCH_TIMEOUT=64,SINK_STALL_EN=1'b1,SINK_STALL_PERIOD=4,SINK_STALL_READY=1) .dut.u_fifo  File: /get/work/krishna.vardhan/git_trees/mtp_pcie_axi/pcie_axi_dma_latency/design/rtl/axis_fifo.sv Line: 165
Warning: [axis_fifo] FIFO full (depth=64) — upstream back-pressured at t=43935000
Time: 43935 ns  Iteration: 0  Process: /tb_pcie_axi_dma(TB_SCENARIO=2,FIFO_DEPTH=64,BATCH_COUNT=4,BATCH_TIMEOUT=64,SINK_STALL_EN=1'b1,SINK_STALL_PERIOD=4,SINK_STALL_READY=1)/dut/u_fifo/Always163_9  Scope: \tb_pcie_axi_dma(TB_SCENARIO=2,FIFO_DEPTH=64,BATCH_COUNT=4,BATCH_TIMEOUT=64,SINK_STALL_EN=1'b1,SINK_STALL_PERIOD=4,SINK_STALL_READY=1) .dut.u_fifo  File: /get/work/krishna.vardhan/git_trees/mtp_pcie_axi/pcie_axi_dma_latency/design/rtl/axis_fifo.sv Line: 165
Warning: [axis_fifo] FIFO full (depth=64) — upstream back-pressured at t=43955000
Time: 43955 ns  Iteration: 0  Process: /tb_pcie_axi_dma(TB_SCENARIO=2,FIFO_DEPTH=64,BATCH_COUNT=4,BATCH_TIMEOUT=64,SINK_STALL_EN=1'b1,SINK_STALL_PERIOD=4,SINK_STALL_READY=1)/dut/u_fifo/Always163_9  Scope: \tb_pcie_axi_dma(TB_SCENARIO=2,FIFO_DEPTH=64,BATCH_COUNT=4,BATCH_TIMEOUT=64,SINK_STALL_EN=1'b1,SINK_STALL_PERIOD=4,SINK_STALL_READY=1) .dut.u_fifo  File: /get/work/krishna.vardhan/git_trees/mtp_pcie_axi/pcie_axi_dma_latency/design/rtl/axis_fifo.sv Line: 165
Warning: [axis_fifo] FIFO full (depth=64) — upstream back-pressured at t=43965000
Time: 43965 ns  Iteration: 0  Process: /tb_pcie_axi_dma(TB_SCENARIO=2,FIFO_DEPTH=64,BATCH_COUNT=4,BATCH_TIMEOUT=64,SINK_STALL_EN=1'b1,SINK_STALL_PERIOD=4,SINK_STALL_READY=1)/dut/u_fifo/Always163_9  Scope: \tb_pcie_axi_dma(TB_SCENARIO=2,FIFO_DEPTH=64,BATCH_COUNT=4,BATCH_TIMEOUT=64,SINK_STALL_EN=1'b1,SINK_STALL_PERIOD=4,SINK_STALL_READY=1) .dut.u_fifo  File: /get/work/krishna.vardhan/git_trees/mtp_pcie_axi/pcie_axi_dma_latency/design/rtl/axis_fifo.sv Line: 165
Warning: [axis_fifo] FIFO full (depth=64) — upstream back-pressured at t=43975000
Time: 43975 ns  Iteration: 0  Process: /tb_pcie_axi_dma(TB_SCENARIO=2,FIFO_DEPTH=64,BATCH_COUNT=4,BATCH_TIMEOUT=64,SINK_STALL_EN=1'b1,SINK_STALL_PERIOD=4,SINK_STALL_READY=1)/dut/u_fifo/Always163_9  Scope: \tb_pcie_axi_dma(TB_SCENARIO=2,FIFO_DEPTH=64,BATCH_COUNT=4,BATCH_TIMEOUT=64,SINK_STALL_EN=1'b1,SINK_STALL_PERIOD=4,SINK_STALL_READY=1) .dut.u_fifo  File: /get/work/krishna.vardhan/git_trees/mtp_pcie_axi/pcie_axi_dma_latency/design/rtl/axis_fifo.sv Line: 165
Warning: [axis_fifo] FIFO full (depth=64) — upstream back-pressured at t=43995000
Time: 43995 ns  Iteration: 0  Process: /tb_pcie_axi_dma(TB_SCENARIO=2,FIFO_DEPTH=64,BATCH_COUNT=4,BATCH_TIMEOUT=64,SINK_STALL_EN=1'b1,SINK_STALL_PERIOD=4,SINK_STALL_READY=1)/dut/u_fifo/Always163_9  Scope: \tb_pcie_axi_dma(TB_SCENARIO=2,FIFO_DEPTH=64,BATCH_COUNT=4,BATCH_TIMEOUT=64,SINK_STALL_EN=1'b1,SINK_STALL_PERIOD=4,SINK_STALL_READY=1) .dut.u_fifo  File: /get/work/krishna.vardhan/git_trees/mtp_pcie_axi/pcie_axi_dma_latency/design/rtl/axis_fifo.sv Line: 165
Warning: [axis_fifo] FIFO full (depth=64) — upstream back-pressured at t=44005000
Time: 44005 ns  Iteration: 0  Process: /tb_pcie_axi_dma(TB_SCENARIO=2,FIFO_DEPTH=64,BATCH_COUNT=4,BATCH_TIMEOUT=64,SINK_STALL_EN=1'b1,SINK_STALL_PERIOD=4,SINK_STALL_READY=1)/dut/u_fifo/Always163_9  Scope: \tb_pcie_axi_dma(TB_SCENARIO=2,FIFO_DEPTH=64,BATCH_COUNT=4,BATCH_TIMEOUT=64,SINK_STALL_EN=1'b1,SINK_STALL_PERIOD=4,SINK_STALL_READY=1) .dut.u_fifo  File: /get/work/krishna.vardhan/git_trees/mtp_pcie_axi/pcie_axi_dma_latency/design/rtl/axis_fifo.sv Line: 165
Warning: [axis_fifo] FIFO full (depth=64) — upstream back-pressured at t=44015000
Time: 44015 ns  Iteration: 0  Process: /tb_pcie_axi_dma(TB_SCENARIO=2,FIFO_DEPTH=64,BATCH_COUNT=4,BATCH_TIMEOUT=64,SINK_STALL_EN=1'b1,SINK_STALL_PERIOD=4,SINK_STALL_READY=1)/dut/u_fifo/Always163_9  Scope: \tb_pcie_axi_dma(TB_SCENARIO=2,FIFO_DEPTH=64,BATCH_COUNT=4,BATCH_TIMEOUT=64,SINK_STALL_EN=1'b1,SINK_STALL_PERIOD=4,SINK_STALL_READY=1) .dut.u_fifo  File: /get/work/krishna.vardhan/git_trees/mtp_pcie_axi/pcie_axi_dma_latency/design/rtl/axis_fifo.sv Line: 165
Warning: [axis_fifo] FIFO full (depth=64) — upstream back-pressured at t=44035000
Time: 44035 ns  Iteration: 0  Process: /tb_pcie_axi_dma(TB_SCENARIO=2,FIFO_DEPTH=64,BATCH_COUNT=4,BATCH_TIMEOUT=64,SINK_STALL_EN=1'b1,SINK_STALL_PERIOD=4,SINK_STALL_READY=1)/dut/u_fifo/Always163_9  Scope: \tb_pcie_axi_dma(TB_SCENARIO=2,FIFO_DEPTH=64,BATCH_COUNT=4,BATCH_TIMEOUT=64,SINK_STALL_EN=1'b1,SINK_STALL_PERIOD=4,SINK_STALL_READY=1) .dut.u_fifo  File: /get/work/krishna.vardhan/git_trees/mtp_pcie_axi/pcie_axi_dma_latency/design/rtl/axis_fifo.sv Line: 165
Warning: [axis_fifo] FIFO full (depth=64) — upstream back-pressured at t=44045000
Time: 44045 ns  Iteration: 0  Process: /tb_pcie_axi_dma(TB_SCENARIO=2,FIFO_DEPTH=64,BATCH_COUNT=4,BATCH_TIMEOUT=64,SINK_STALL_EN=1'b1,SINK_STALL_PERIOD=4,SINK_STALL_READY=1)/dut/u_fifo/Always163_9  Scope: \tb_pcie_axi_dma(TB_SCENARIO=2,FIFO_DEPTH=64,BATCH_COUNT=4,BATCH_TIMEOUT=64,SINK_STALL_EN=1'b1,SINK_STALL_PERIOD=4,SINK_STALL_READY=1) .dut.u_fifo  File: /get/work/krishna.vardhan/git_trees/mtp_pcie_axi/pcie_axi_dma_latency/design/rtl/axis_fifo.sv Line: 165
Warning: [axis_fifo] FIFO full (depth=64) — upstream back-pressured at t=44055000
Time: 44055 ns  Iteration: 0  Process: /tb_pcie_axi_dma(TB_SCENARIO=2,FIFO_DEPTH=64,BATCH_COUNT=4,BATCH_TIMEOUT=64,SINK_STALL_EN=1'b1,SINK_STALL_PERIOD=4,SINK_STALL_READY=1)/dut/u_fifo/Always163_9  Scope: \tb_pcie_axi_dma(TB_SCENARIO=2,FIFO_DEPTH=64,BATCH_COUNT=4,BATCH_TIMEOUT=64,SINK_STALL_EN=1'b1,SINK_STALL_PERIOD=4,SINK_STALL_READY=1) .dut.u_fifo  File: /get/work/krishna.vardhan/git_trees/mtp_pcie_axi/pcie_axi_dma_latency/design/rtl/axis_fifo.sv Line: 165
Warning: [axis_fifo] FIFO full (depth=64) — upstream back-pressured at t=44075000
Time: 44075 ns  Iteration: 0  Process: /tb_pcie_axi_dma(TB_SCENARIO=2,FIFO_DEPTH=64,BATCH_COUNT=4,BATCH_TIMEOUT=64,SINK_STALL_EN=1'b1,SINK_STALL_PERIOD=4,SINK_STALL_READY=1)/dut/u_fifo/Always163_9  Scope: \tb_pcie_axi_dma(TB_SCENARIO=2,FIFO_DEPTH=64,BATCH_COUNT=4,BATCH_TIMEOUT=64,SINK_STALL_EN=1'b1,SINK_STALL_PERIOD=4,SINK_STALL_READY=1) .dut.u_fifo  File: /get/work/krishna.vardhan/git_trees/mtp_pcie_axi/pcie_axi_dma_latency/design/rtl/axis_fifo.sv Line: 165
Warning: [axis_fifo] FIFO full (depth=64) — upstream back-pressured at t=44085000
Time: 44085 ns  Iteration: 0  Process: /tb_pcie_axi_dma(TB_SCENARIO=2,FIFO_DEPTH=64,BATCH_COUNT=4,BATCH_TIMEOUT=64,SINK_STALL_EN=1'b1,SINK_STALL_PERIOD=4,SINK_STALL_READY=1)/dut/u_fifo/Always163_9  Scope: \tb_pcie_axi_dma(TB_SCENARIO=2,FIFO_DEPTH=64,BATCH_COUNT=4,BATCH_TIMEOUT=64,SINK_STALL_EN=1'b1,SINK_STALL_PERIOD=4,SINK_STALL_READY=1) .dut.u_fifo  File: /get/work/krishna.vardhan/git_trees/mtp_pcie_axi/pcie_axi_dma_latency/design/rtl/axis_fifo.sv Line: 165
Warning: [axis_fifo] FIFO full (depth=64) — upstream back-pressured at t=44095000
Time: 44095 ns  Iteration: 0  Process: /tb_pcie_axi_dma(TB_SCENARIO=2,FIFO_DEPTH=64,BATCH_COUNT=4,BATCH_TIMEOUT=64,SINK_STALL_EN=1'b1,SINK_STALL_PERIOD=4,SINK_STALL_READY=1)/dut/u_fifo/Always163_9  Scope: \tb_pcie_axi_dma(TB_SCENARIO=2,FIFO_DEPTH=64,BATCH_COUNT=4,BATCH_TIMEOUT=64,SINK_STALL_EN=1'b1,SINK_STALL_PERIOD=4,SINK_STALL_READY=1) .dut.u_fifo  File: /get/work/krishna.vardhan/git_trees/mtp_pcie_axi/pcie_axi_dma_latency/design/rtl/axis_fifo.sv Line: 165
Warning: [axis_fifo] FIFO full (depth=64) — upstream back-pressured at t=44115000
Time: 44115 ns  Iteration: 0  Process: /tb_pcie_axi_dma(TB_SCENARIO=2,FIFO_DEPTH=64,BATCH_COUNT=4,BATCH_TIMEOUT=64,SINK_STALL_EN=1'b1,SINK_STALL_PERIOD=4,SINK_STALL_READY=1)/dut/u_fifo/Always163_9  Scope: \tb_pcie_axi_dma(TB_SCENARIO=2,FIFO_DEPTH=64,BATCH_COUNT=4,BATCH_TIMEOUT=64,SINK_STALL_EN=1'b1,SINK_STALL_PERIOD=4,SINK_STALL_READY=1) .dut.u_fifo  File: /get/work/krishna.vardhan/git_trees/mtp_pcie_axi/pcie_axi_dma_latency/design/rtl/axis_fifo.sv Line: 165
Warning: [axis_fifo] FIFO full (depth=64) — upstream back-pressured at t=44125000
Time: 44125 ns  Iteration: 0  Process: /tb_pcie_axi_dma(TB_SCENARIO=2,FIFO_DEPTH=64,BATCH_COUNT=4,BATCH_TIMEOUT=64,SINK_STALL_EN=1'b1,SINK_STALL_PERIOD=4,SINK_STALL_READY=1)/dut/u_fifo/Always163_9  Scope: \tb_pcie_axi_dma(TB_SCENARIO=2,FIFO_DEPTH=64,BATCH_COUNT=4,BATCH_TIMEOUT=64,SINK_STALL_EN=1'b1,SINK_STALL_PERIOD=4,SINK_STALL_READY=1) .dut.u_fifo  File: /get/work/krishna.vardhan/git_trees/mtp_pcie_axi/pcie_axi_dma_latency/design/rtl/axis_fifo.sv Line: 165
Warning: [axis_fifo] FIFO full (depth=64) — upstream back-pressured at t=44135000
Time: 44135 ns  Iteration: 0  Process: /tb_pcie_axi_dma(TB_SCENARIO=2,FIFO_DEPTH=64,BATCH_COUNT=4,BATCH_TIMEOUT=64,SINK_STALL_EN=1'b1,SINK_STALL_PERIOD=4,SINK_STALL_READY=1)/dut/u_fifo/Always163_9  Scope: \tb_pcie_axi_dma(TB_SCENARIO=2,FIFO_DEPTH=64,BATCH_COUNT=4,BATCH_TIMEOUT=64,SINK_STALL_EN=1'b1,SINK_STALL_PERIOD=4,SINK_STALL_READY=1) .dut.u_fifo  File: /get/work/krishna.vardhan/git_trees/mtp_pcie_axi/pcie_axi_dma_latency/design/rtl/axis_fifo.sv Line: 165
Warning: [axis_fifo] FIFO full (depth=64) — upstream back-pressured at t=44155000
Time: 44155 ns  Iteration: 0  Process: /tb_pcie_axi_dma(TB_SCENARIO=2,FIFO_DEPTH=64,BATCH_COUNT=4,BATCH_TIMEOUT=64,SINK_STALL_EN=1'b1,SINK_STALL_PERIOD=4,SINK_STALL_READY=1)/dut/u_fifo/Always163_9  Scope: \tb_pcie_axi_dma(TB_SCENARIO=2,FIFO_DEPTH=64,BATCH_COUNT=4,BATCH_TIMEOUT=64,SINK_STALL_EN=1'b1,SINK_STALL_PERIOD=4,SINK_STALL_READY=1) .dut.u_fifo  File: /get/work/krishna.vardhan/git_trees/mtp_pcie_axi/pcie_axi_dma_latency/design/rtl/axis_fifo.sv Line: 165
Warning: [axis_fifo] FIFO full (depth=64) — upstream back-pressured at t=44165000
Time: 44165 ns  Iteration: 0  Process: /tb_pcie_axi_dma(TB_SCENARIO=2,FIFO_DEPTH=64,BATCH_COUNT=4,BATCH_TIMEOUT=64,SINK_STALL_EN=1'b1,SINK_STALL_PERIOD=4,SINK_STALL_READY=1)/dut/u_fifo/Always163_9  Scope: \tb_pcie_axi_dma(TB_SCENARIO=2,FIFO_DEPTH=64,BATCH_COUNT=4,BATCH_TIMEOUT=64,SINK_STALL_EN=1'b1,SINK_STALL_PERIOD=4,SINK_STALL_READY=1) .dut.u_fifo  File: /get/work/krishna.vardhan/git_trees/mtp_pcie_axi/pcie_axi_dma_latency/design/rtl/axis_fifo.sv Line: 165
Warning: [axis_fifo] FIFO full (depth=64) — upstream back-pressured at t=44175000
