mkdir -p /get/work/krishna.vardhan/git_trees/mtp_pcie_axi/pcie_axi_dma_latency/build_kv_scenario2_stall_fifo16
cd /get/work/krishna.vardhan/git_trees/mtp_pcie_axi/pcie_axi_dma_latency/build_kv_scenario2_stall_fifo16 && \
xvlog --sv --incr \
    /get/work/krishna.vardhan/git_trees/mtp_pcie_axi/pcie_axi_dma_latency/design/rtl/pcie_axi_pkg.sv /get/work/krishna.vardhan/git_trees/mtp_pcie_axi/pcie_axi_dma_latency/design/rtl/pcie_model.sv /get/work/krishna.vardhan/git_trees/mtp_pcie_axi/pcie_axi_dma_latency/design/rtl/dma_model.sv /get/work/krishna.vardhan/git_trees/mtp_pcie_axi/pcie_axi_dma_latency/design/rtl/axi_mm2s_adapter.sv /get/work/krishna.vardhan/git_trees/mtp_pcie_axi/pcie_axi_dma_latency/design/rtl/axis_fifo.sv /get/work/krishna.vardhan/git_trees/mtp_pcie_axi/pcie_axi_dma_latency/design/rtl/batching_unit.sv /get/work/krishna.vardhan/git_trees/mtp_pcie_axi/pcie_axi_dma_latency/design/rtl/stream_sink.sv /get/work/krishna.vardhan/git_trees/mtp_pcie_axi/pcie_axi_dma_latency/design/rtl/latency_monitor.sv /get/work/krishna.vardhan/git_trees/mtp_pcie_axi/pcie_axi_dma_latency/design/rtl/pcie_axi_dma_top.sv /get/work/krishna.vardhan/git_trees/mtp_pcie_axi/pcie_axi_dma_latency/verif/tb/tb_pcie_axi_dma.sv \
    -log xvlog.log
INFO: [VRFC 10-2263] Analyzing SystemVerilog file "/get/work/krishna.vardhan/git_trees/mtp_pcie_axi/pcie_axi_dma_latency/design/rtl/pcie_axi_pkg.sv" into library work
INFO: [VRFC 10-2263] Analyzing SystemVerilog file "/get/work/krishna.vardhan/git_trees/mtp_pcie_axi/pcie_axi_dma_latency/design/rtl/pcie_model.sv" into library work
INFO: [VRFC 10-311] analyzing module pcie_model
INFO: [VRFC 10-2263] Analyzing SystemVerilog file "/get/work/krishna.vardhan/git_trees/mtp_pcie_axi/pcie_axi_dma_latency/design/rtl/dma_model.sv" into library work
INFO: [VRFC 10-311] analyzing module dma_model
INFO: [VRFC 10-2263] Analyzing SystemVerilog file "/get/work/krishna.vardhan/git_trees/mtp_pcie_axi/pcie_axi_dma_latency/design/rtl/axi_mm2s_adapter.sv" into library work
INFO: [VRFC 10-311] analyzing module axi_mm2s_adapter
INFO: [VRFC 10-2263] Analyzing SystemVerilog file "/get/work/krishna.vardhan/git_trees/mtp_pcie_axi/pcie_axi_dma_latency/design/rtl/axis_fifo.sv" into library work
INFO: [VRFC 10-311] analyzing module axis_fifo
INFO: [VRFC 10-2263] Analyzing SystemVerilog file "/get/work/krishna.vardhan/git_trees/mtp_pcie_axi/pcie_axi_dma_latency/design/rtl/batching_unit.sv" into library work
INFO: [VRFC 10-311] analyzing module batching_unit
INFO: [VRFC 10-2263] Analyzing SystemVerilog file "/get/work/krishna.vardhan/git_trees/mtp_pcie_axi/pcie_axi_dma_latency/design/rtl/stream_sink.sv" into library work
INFO: [VRFC 10-311] analyzing module stream_sink
INFO: [VRFC 10-2263] Analyzing SystemVerilog file "/get/work/krishna.vardhan/git_trees/mtp_pcie_axi/pcie_axi_dma_latency/design/rtl/latency_monitor.sv" into library work
INFO: [VRFC 10-311] analyzing module latency_monitor
INFO: [VRFC 10-2263] Analyzing SystemVerilog file "/get/work/krishna.vardhan/git_trees/mtp_pcie_axi/pcie_axi_dma_latency/design/rtl/pcie_axi_dma_top.sv" into library work
INFO: [VRFC 10-311] analyzing module pcie_axi_dma_top
INFO: [VRFC 10-2263] Analyzing SystemVerilog file "/get/work/krishna.vardhan/git_trees/mtp_pcie_axi/pcie_axi_dma_latency/verif/tb/tb_pcie_axi_dma.sv" into library work
INFO: [VRFC 10-311] analyzing module tb_pcie_axi_dma
touch /get/work/krishna.vardhan/git_trees/mtp_pcie_axi/pcie_axi_dma_latency/build_kv_scenario2_stall_fifo16/.compiled
cd /get/work/krishna.vardhan/git_trees/mtp_pcie_axi/pcie_axi_dma_latency/build_kv_scenario2_stall_fifo16 && \
xelab tb_pcie_axi_dma \
    --snapshot tb_pcie_axi_dma_snap \
    -generic_top "TB_SCENARIO=2" -generic_top "FIFO_DEPTH=16" -generic_top "BATCH_COUNT=4" -generic_top "BATCH_TIMEOUT=64" -generic_top "SINK_STALL_EN=1" -generic_top "SINK_STALL_PERIOD=4" -generic_top "SINK_STALL_READY=1" \
    --timescale 1ns/1ps \
    --debug typical \
    -log xelab.log
Vivado Simulator v2022.2
Copyright 1986-1999, 2001-2022 Xilinx, Inc. All Rights Reserved.
Running: /tools/Xilinx/Vivado/2022.2/bin/unwrapped/lnx64.o/xelab tb_pcie_axi_dma --snapshot tb_pcie_axi_dma_snap -generic_top TB_SCENARIO=2 -generic_top FIFO_DEPTH=16 -generic_top BATCH_COUNT=4 -generic_top BATCH_TIMEOUT=64 -generic_top SINK_STALL_EN=1 -generic_top SINK_STALL_PERIOD=4 -generic_top SINK_STALL_READY=1 --timescale 1ns/1ps --debug typical -log xelab.log 
Multi-threading is on. Using 2 slave threads.
Starting static elaboration
Pass Through NonSizing Optimizer
Completed static elaboration
Starting simulation data flow analysis
Completed simulation data flow analysis
Time Resolution for simulation is 1ps
Compiling package work.pcie_axi_pkg
Compiling module work.pcie_model(DATA_WIDTH=64,PKT_SIZ...
Compiling module work.dma_model(DATA_WIDTH=64,PKT_SIZE...
Compiling module work.axi_mm2s_adapter(DATA_WIDTH=64,P...
Compiling module work.axis_fifo(DATA_WIDTH=64,PKT_SIZE...
Compiling module work.batching_unit(DATA_WIDTH=64,PKT_...
Compiling module work.stream_sink(DATA_WIDTH=64,PKT_SI...
Compiling module work.latency_monitor(PKT_ID_W=8,PKT_S...
Compiling module work.pcie_axi_dma_top(DATA_WIDTH=64,P...
Compiling module work.tb_pcie_axi_dma(TB_SCENARIO=2,FI...
Built simulation snapshot tb_pcie_axi_dma_snap
touch /get/work/krishna.vardhan/git_trees/mtp_pcie_axi/pcie_axi_dma_latency/build_kv_scenario2_stall_fifo16/.elaborated
cd /get/work/krishna.vardhan/git_trees/mtp_pcie_axi/pcie_axi_dma_latency/build_kv_scenario2_stall_fifo16 && \
xsim tb_pcie_axi_dma_snap \
    --runall \
    --log xsim_batch.log

****** xsim v2022.2 (64-bit)
  **** SW Build 3671981 on Fri Oct 14 04:59:54 MDT 2022
  **** IP Build 3669848 on Fri Oct 14 08:30:02 MDT 2022
    ** Copyright 1986-2022 Xilinx, Inc. All Rights Reserved.

source xsim.dir/tb_pcie_axi_dma_snap/xsim_script.tcl
# xsim {tb_pcie_axi_dma_snap} -autoloadwcfg -runall
Time resolution is 1 ps
run -all
[batching_unit] Bypass mode (enable=0)

[RESULT] ================================================================
[RESULT]  PCIe-AXI DMA Latency Simulation  |  Config: BASELINE,FIFO=16,STALL=1/4
[RESULT] ================================================================
[RESULT]  PKT_ID | SIZE (B) | LATENCY (cyc) | EFFICIENCY (B/cyc) | FIFO_PEAK | FULL?
[RESULT] ----------------------------------------------------------------
[dma_model] t=775000  pkt_id=0  descriptor setup done  (SETUP_CYCLES=8)
[sink]  t=1095000  pkt_id=0  size=64B  count=1
[latmon] pkt_id=0  size=  64B  latency=   94 cyc  eff= 0.68 B/cyc
[latmon]  ↳ est: PCIe=44  DMA=24  other=26  total_measured=94
[RESULT]       0 |       64 |            94 |               0.68 |         6 |    no | BASELINE,FIFO=16,STALL=1/4
[dma_model] t=2145000  pkt_id=1  descriptor setup done  (SETUP_CYCLES=8)
[sink]  t=2775000  pkt_id=1  size=128B  count=2
[latmon] pkt_id=1  size= 128B  latency=  157 cyc  eff= 0.82 B/cyc
[latmon]  ↳ est: PCIe=68  DMA=40  other=49  total_measured=157
[RESULT]       1 |      128 |           157 |               0.82 |        12 |    no | BASELINE,FIFO=16,STALL=1/4
[dma_model] t=4465000  pkt_id=2  descriptor setup done  (SETUP_CYCLES=8)
Warning: [axis_fifo] FIFO full (depth=16) — upstream back-pressured at t=4685000
Time: 4685 ns  Iteration: 0  Process: /tb_pcie_axi_dma(TB_SCENARIO=2,FIFO_DEPTH=16,BATCH_COUNT=4,BATCH_TIMEOUT=64,SINK_STALL_EN=1'b1,SINK_STALL_PERIOD=4,SINK_STALL_READY=1)/dut/u_fifo/Always163_9  Scope: \tb_pcie_axi_dma(TB_SCENARIO=2,FIFO_DEPTH=16,BATCH_COUNT=4,BATCH_TIMEOUT=64,SINK_STALL_EN=1'b1,SINK_STALL_PERIOD=4,SINK_STALL_READY=1) .dut.u_fifo  File: /get/work/krishna.vardhan/git_trees/mtp_pcie_axi/pcie_axi_dma_latency/design/rtl/axis_fifo.sv Line: 165
Warning: [axis_fifo] FIFO full (depth=16) — upstream back-pressured at t=4695000
Time: 4695 ns  Iteration: 0  Process: /tb_pcie_axi_dma(TB_SCENARIO=2,FIFO_DEPTH=16,BATCH_COUNT=4,BATCH_TIMEOUT=64,SINK_STALL_EN=1'b1,SINK_STALL_PERIOD=4,SINK_STALL_READY=1)/dut/u_fifo/Always163_9  Scope: \tb_pcie_axi_dma(TB_SCENARIO=2,FIFO_DEPTH=16,BATCH_COUNT=4,BATCH_TIMEOUT=64,SINK_STALL_EN=1'b1,SINK_STALL_PERIOD=4,SINK_STALL_READY=1) .dut.u_fifo  File: /get/work/krishna.vardhan/git_trees/mtp_pcie_axi/pcie_axi_dma_latency/design/rtl/axis_fifo.sv Line: 165
Warning: [axis_fifo] FIFO full (depth=16) — upstream back-pressured at t=4715000
Time: 4715 ns  Iteration: 0  Process: /tb_pcie_axi_dma(TB_SCENARIO=2,FIFO_DEPTH=16,BATCH_COUNT=4,BATCH_TIMEOUT=64,SINK_STALL_EN=1'b1,SINK_STALL_PERIOD=4,SINK_STALL_READY=1)/dut/u_fifo/Always163_9  Scope: \tb_pcie_axi_dma(TB_SCENARIO=2,FIFO_DEPTH=16,BATCH_COUNT=4,BATCH_TIMEOUT=64,SINK_STALL_EN=1'b1,SINK_STALL_PERIOD=4,SINK_STALL_READY=1) .dut.u_fifo  File: /get/work/krishna.vardhan/git_trees/mtp_pcie_axi/pcie_axi_dma_latency/design/rtl/axis_fifo.sv Line: 165
Warning: [axis_fifo] FIFO full (depth=16) — upstream back-pressured at t=4725000
Time: 4725 ns  Iteration: 0  Process: /tb_pcie_axi_dma(TB_SCENARIO=2,FIFO_DEPTH=16,BATCH_COUNT=4,BATCH_TIMEOUT=64,SINK_STALL_EN=1'b1,SINK_STALL_PERIOD=4,SINK_STALL_READY=1)/dut/u_fifo/Always163_9  Scope: \tb_pcie_axi_dma(TB_SCENARIO=2,FIFO_DEPTH=16,BATCH_COUNT=4,BATCH_TIMEOUT=64,SINK_STALL_EN=1'b1,SINK_STALL_PERIOD=4,SINK_STALL_READY=1) .dut.u_fifo  File: /get/work/krishna.vardhan/git_trees/mtp_pcie_axi/pcie_axi_dma_latency/design/rtl/axis_fifo.sv Line: 165
Warning: [axis_fifo] FIFO full (depth=16) — upstream back-pressured at t=4735000
Time: 4735 ns  Iteration: 0  Process: /tb_pcie_axi_dma(TB_SCENARIO=2,FIFO_DEPTH=16,BATCH_COUNT=4,BATCH_TIMEOUT=64,SINK_STALL_EN=1'b1,SINK_STALL_PERIOD=4,SINK_STALL_READY=1)/dut/u_fifo/Always163_9  Scope: \tb_pcie_axi_dma(TB_SCENARIO=2,FIFO_DEPTH=16,BATCH_COUNT=4,BATCH_TIMEOUT=64,SINK_STALL_EN=1'b1,SINK_STALL_PERIOD=4,SINK_STALL_READY=1) .dut.u_fifo  File: /get/work/krishna.vardhan/git_trees/mtp_pcie_axi/pcie_axi_dma_latency/design/rtl/axis_fifo.sv Line: 165
Warning: [axis_fifo] FIFO full (depth=16) — upstream back-pressured at t=4755000
Time: 4755 ns  Iteration: 0  Process: /tb_pcie_axi_dma(TB_SCENARIO=2,FIFO_DEPTH=16,BATCH_COUNT=4,BATCH_TIMEOUT=64,SINK_STALL_EN=1'b1,SINK_STALL_PERIOD=4,SINK_STALL_READY=1)/dut/u_fifo/Always163_9  Scope: \tb_pcie_axi_dma(TB_SCENARIO=2,FIFO_DEPTH=16,BATCH_COUNT=4,BATCH_TIMEOUT=64,SINK_STALL_EN=1'b1,SINK_STALL_PERIOD=4,SINK_STALL_READY=1) .dut.u_fifo  File: /get/work/krishna.vardhan/git_trees/mtp_pcie_axi/pcie_axi_dma_latency/design/rtl/axis_fifo.sv Line: 165
Warning: [axis_fifo] FIFO full (depth=16) — upstream back-pressured at t=4765000
Time: 4765 ns  Iteration: 0  Process: /tb_pcie_axi_dma(TB_SCENARIO=2,FIFO_DEPTH=16,BATCH_COUNT=4,BATCH_TIMEOUT=64,SINK_STALL_EN=1'b1,SINK_STALL_PERIOD=4,SINK_STALL_READY=1)/dut/u_fifo/Always163_9  Scope: \tb_pcie_axi_dma(TB_SCENARIO=2,FIFO_DEPTH=16,BATCH_COUNT=4,BATCH_TIMEOUT=64,SINK_STALL_EN=1'b1,SINK_STALL_PERIOD=4,SINK_STALL_READY=1) .dut.u_fifo  File: /get/work/krishna.vardhan/git_trees/mtp_pcie_axi/pcie_axi_dma_latency/design/rtl/axis_fifo.sv Line: 165
Warning: [axis_fifo] FIFO full (depth=16) — upstream back-pressured at t=4775000
Time: 4775 ns  Iteration: 0  Process: /tb_pcie_axi_dma(TB_SCENARIO=2,FIFO_DEPTH=16,BATCH_COUNT=4,BATCH_TIMEOUT=64,SINK_STALL_EN=1'b1,SINK_STALL_PERIOD=4,SINK_STALL_READY=1)/dut/u_fifo/Always163_9  Scope: \tb_pcie_axi_dma(TB_SCENARIO=2,FIFO_DEPTH=16,BATCH_COUNT=4,BATCH_TIMEOUT=64,SINK_STALL_EN=1'b1,SINK_STALL_PERIOD=4,SINK_STALL_READY=1) .dut.u_fifo  File: /get/work/krishna.vardhan/git_trees/mtp_pcie_axi/pcie_axi_dma_latency/design/rtl/axis_fifo.sv Line: 165
Warning: [axis_fifo] FIFO full (depth=16) — upstream back-pressured at t=4795000
Time: 4795 ns  Iteration: 0  Process: /tb_pcie_axi_dma(TB_SCENARIO=2,FIFO_DEPTH=16,BATCH_COUNT=4,BATCH_TIMEOUT=64,SINK_STALL_EN=1'b1,SINK_STALL_PERIOD=4,SINK_STALL_READY=1)/dut/u_fifo/Always163_9  Scope: \tb_pcie_axi_dma(TB_SCENARIO=2,FIFO_DEPTH=16,BATCH_COUNT=4,BATCH_TIMEOUT=64,SINK_STALL_EN=1'b1,SINK_STALL_PERIOD=4,SINK_STALL_READY=1) .dut.u_fifo  File: /get/work/krishna.vardhan/git_trees/mtp_pcie_axi/pcie_axi_dma_latency/design/rtl/axis_fifo.sv Line: 165
Warning: [axis_fifo] FIFO full (depth=16) — upstream back-pressured at t=4805000
Time: 4805 ns  Iteration: 0  Process: /tb_pcie_axi_dma(TB_SCENARIO=2,FIFO_DEPTH=16,BATCH_COUNT=4,BATCH_TIMEOUT=64,SINK_STALL_EN=1'b1,SINK_STALL_PERIOD=4,SINK_STALL_READY=1)/dut/u_fifo/Always163_9  Scope: \tb_pcie_axi_dma(TB_SCENARIO=2,FIFO_DEPTH=16,BATCH_COUNT=4,BATCH_TIMEOUT=64,SINK_STALL_EN=1'b1,SINK_STALL_PERIOD=4,SINK_STALL_READY=1) .dut.u_fifo  File: /get/work/krishna.vardhan/git_trees/mtp_pcie_axi/pcie_axi_dma_latency/design/rtl/axis_fifo.sv Line: 165
Warning: [axis_fifo] FIFO full (depth=16) — upstream back-pressured at t=4815000
Time: 4815 ns  Iteration: 0  Process: /tb_pcie_axi_dma(TB_SCENARIO=2,FIFO_DEPTH=16,BATCH_COUNT=4,BATCH_TIMEOUT=64,SINK_STALL_EN=1'b1,SINK_STALL_PERIOD=4,SINK_STALL_READY=1)/dut/u_fifo/Always163_9  Scope: \tb_pcie_axi_dma(TB_SCENARIO=2,FIFO_DEPTH=16,BATCH_COUNT=4,BATCH_TIMEOUT=64,SINK_STALL_EN=1'b1,SINK_STALL_PERIOD=4,SINK_STALL_READY=1) .dut.u_fifo  File: /get/work/krishna.vardhan/git_trees/mtp_pcie_axi/pcie_axi_dma_latency/design/rtl/axis_fifo.sv Line: 165
Warning: [axis_fifo] FIFO full (depth=16) — upstream back-pressured at t=4835000
Time: 4835 ns  Iteration: 0  Process: /tb_pcie_axi_dma(TB_SCENARIO=2,FIFO_DEPTH=16,BATCH_COUNT=4,BATCH_TIMEOUT=64,SINK_STALL_EN=1'b1,SINK_STALL_PERIOD=4,SINK_STALL_READY=1)/dut/u_fifo/Always163_9  Scope: \tb_pcie_axi_dma(TB_SCENARIO=2,FIFO_DEPTH=16,BATCH_COUNT=4,BATCH_TIMEOUT=64,SINK_STALL_EN=1'b1,SINK_STALL_PERIOD=4,SINK_STALL_READY=1) .dut.u_fifo  File: /get/work/krishna.vardhan/git_trees/mtp_pcie_axi/pcie_axi_dma_latency/design/rtl/axis_fifo.sv Line: 165
Warning: [axis_fifo] FIFO full (depth=16) — upstream back-pressured at t=4845000
Time: 4845 ns  Iteration: 0  Process: /tb_pcie_axi_dma(TB_SCENARIO=2,FIFO_DEPTH=16,BATCH_COUNT=4,BATCH_TIMEOUT=64,SINK_STALL_EN=1'b1,SINK_STALL_PERIOD=4,SINK_STALL_READY=1)/dut/u_fifo/Always163_9  Scope: \tb_pcie_axi_dma(TB_SCENARIO=2,FIFO_DEPTH=16,BATCH_COUNT=4,BATCH_TIMEOUT=64,SINK_STALL_EN=1'b1,SINK_STALL_PERIOD=4,SINK_STALL_READY=1) .dut.u_fifo  File: /get/work/krishna.vardhan/git_trees/mtp_pcie_axi/pcie_axi_dma_latency/design/rtl/axis_fifo.sv Line: 165
Warning: [axis_fifo] FIFO full (depth=16) — upstream back-pressured at t=4855000
Time: 4855 ns  Iteration: 0  Process: /tb_pcie_axi_dma(TB_SCENARIO=2,FIFO_DEPTH=16,BATCH_COUNT=4,BATCH_TIMEOUT=64,SINK_STALL_EN=1'b1,SINK_STALL_PERIOD=4,SINK_STALL_READY=1)/dut/u_fifo/Always163_9  Scope: \tb_pcie_axi_dma(TB_SCENARIO=2,FIFO_DEPTH=16,BATCH_COUNT=4,BATCH_TIMEOUT=64,SINK_STALL_EN=1'b1,SINK_STALL_PERIOD=4,SINK_STALL_READY=1) .dut.u_fifo  File: /get/work/krishna.vardhan/git_trees/mtp_pcie_axi/pcie_axi_dma_latency/design/rtl/axis_fifo.sv Line: 165
Warning: [axis_fifo] FIFO full (depth=16) — upstream back-pressured at t=4875000
Time: 4875 ns  Iteration: 0  Process: /tb_pcie_axi_dma(TB_SCENARIO=2,FIFO_DEPTH=16,BATCH_COUNT=4,BATCH_TIMEOUT=64,SINK_STALL_EN=1'b1,SINK_STALL_PERIOD=4,SINK_STALL_READY=1)/dut/u_fifo/Always163_9  Scope: \tb_pcie_axi_dma(TB_SCENARIO=2,FIFO_DEPTH=16,BATCH_COUNT=4,BATCH_TIMEOUT=64,SINK_STALL_EN=1'b1,SINK_STALL_PERIOD=4,SINK_STALL_READY=1) .dut.u_fifo  File: /get/work/krishna.vardhan/git_trees/mtp_pcie_axi/pcie_axi_dma_latency/design/rtl/axis_fifo.sv Line: 165
Warning: [axis_fifo] FIFO full (depth=16) — upstream back-pressured at t=4885000
Time: 4885 ns  Iteration: 0  Process: /tb_pcie_axi_dma(TB_SCENARIO=2,FIFO_DEPTH=16,BATCH_COUNT=4,BATCH_TIMEOUT=64,SINK_STALL_EN=1'b1,SINK_STALL_PERIOD=4,SINK_STALL_READY=1)/dut/u_fifo/Always163_9  Scope: \tb_pcie_axi_dma(TB_SCENARIO=2,FIFO_DEPTH=16,BATCH_COUNT=4,BATCH_TIMEOUT=64,SINK_STALL_EN=1'b1,SINK_STALL_PERIOD=4,SINK_STALL_READY=1) .dut.u_fifo  File: /get/work/krishna.vardhan/git_trees/mtp_pcie_axi/pcie_axi_dma_latency/design/rtl/axis_fifo.sv Line: 165
Warning: [axis_fifo] FIFO full (depth=16) — upstream back-pressured at t=4895000
Time: 4895 ns  Iteration: 0  Process: /tb_pcie_axi_dma(TB_SCENARIO=2,FIFO_DEPTH=16,BATCH_COUNT=4,BATCH_TIMEOUT=64,SINK_STALL_EN=1'b1,SINK_STALL_PERIOD=4,SINK_STALL_READY=1)/dut/u_fifo/Always163_9  Scope: \tb_pcie_axi_dma(TB_SCENARIO=2,FIFO_DEPTH=16,BATCH_COUNT=4,BATCH_TIMEOUT=64,SINK_STALL_EN=1'b1,SINK_STALL_PERIOD=4,SINK_STALL_READY=1) .dut.u_fifo  File: /get/work/krishna.vardhan/git_trees/mtp_pcie_axi/pcie_axi_dma_latency/design/rtl/axis_fifo.sv Line: 165
Warning: [axis_fifo] FIFO full (depth=16) — upstream back-pressured at t=4915000
Time: 4915 ns  Iteration: 0  Process: /tb_pcie_axi_dma(TB_SCENARIO=2,FIFO_DEPTH=16,BATCH_COUNT=4,BATCH_TIMEOUT=64,SINK_STALL_EN=1'b1,SINK_STALL_PERIOD=4,SINK_STALL_READY=1)/dut/u_fifo/Always163_9  Scope: \tb_pcie_axi_dma(TB_SCENARIO=2,FIFO_DEPTH=16,BATCH_COUNT=4,BATCH_TIMEOUT=64,SINK_STALL_EN=1'b1,SINK_STALL_PERIOD=4,SINK_STALL_READY=1) .dut.u_fifo  File: /get/work/krishna.vardhan/git_trees/mtp_pcie_axi/pcie_axi_dma_latency/design/rtl/axis_fifo.sv Line: 165
Warning: [axis_fifo] FIFO full (depth=16) — upstream back-pressured at t=4925000
Time: 4925 ns  Iteration: 0  Process: /tb_pcie_axi_dma(TB_SCENARIO=2,FIFO_DEPTH=16,BATCH_COUNT=4,BATCH_TIMEOUT=64,SINK_STALL_EN=1'b1,SINK_STALL_PERIOD=4,SINK_STALL_READY=1)/dut/u_fifo/Always163_9  Scope: \tb_pcie_axi_dma(TB_SCENARIO=2,FIFO_DEPTH=16,BATCH_COUNT=4,BATCH_TIMEOUT=64,SINK_STALL_EN=1'b1,SINK_STALL_PERIOD=4,SINK_STALL_READY=1) .dut.u_fifo  File: /get/work/krishna.vardhan/git_trees/mtp_pcie_axi/pcie_axi_dma_latency/design/rtl/axis_fifo.sv Line: 165
Warning: [axis_fifo] FIFO full (depth=16) — upstream back-pressured at t=4935000
Time: 4935 ns  Iteration: 0  Process: /tb_pcie_axi_dma(TB_SCENARIO=2,FIFO_DEPTH=16,BATCH_COUNT=4,BATCH_TIMEOUT=64,SINK_STALL_EN=1'b1,SINK_STALL_PERIOD=4,SINK_STALL_READY=1)/dut/u_fifo/Always163_9  Scope: \tb_pcie_axi_dma(TB_SCENARIO=2,FIFO_DEPTH=16,BATCH_COUNT=4,BATCH_TIMEOUT=64,SINK_STALL_EN=1'b1,SINK_STALL_PERIOD=4,SINK_STALL_READY=1) .dut.u_fifo  File: /get/work/krishna.vardhan/git_trees/mtp_pcie_axi/pcie_axi_dma_latency/design/rtl/axis_fifo.sv Line: 165
Warning: [axis_fifo] FIFO full (depth=16) — upstream back-pressured at t=4955000
Time: 4955 ns  Iteration: 0  Process: /tb_pcie_axi_dma(TB_SCENARIO=2,FIFO_DEPTH=16,BATCH_COUNT=4,BATCH_TIMEOUT=64,SINK_STALL_EN=1'b1,SINK_STALL_PERIOD=4,SINK_STALL_READY=1)/dut/u_fifo/Always163_9  Scope: \tb_pcie_axi_dma(TB_SCENARIO=2,FIFO_DEPTH=16,BATCH_COUNT=4,BATCH_TIMEOUT=64,SINK_STALL_EN=1'b1,SINK_STALL_PERIOD=4,SINK_STALL_READY=1) .dut.u_fifo  File: /get/work/krishna.vardhan/git_trees/mtp_pcie_axi/pcie_axi_dma_latency/design/rtl/axis_fifo.sv Line: 165
Warning: [axis_fifo] FIFO full (depth=16) — upstream back-pressured at t=4965000
Time: 4965 ns  Iteration: 0  Process: /tb_pcie_axi_dma(TB_SCENARIO=2,FIFO_DEPTH=16,BATCH_COUNT=4,BATCH_TIMEOUT=64,SINK_STALL_EN=1'b1,SINK_STALL_PERIOD=4,SINK_STALL_READY=1)/dut/u_fifo/Always163_9  Scope: \tb_pcie_axi_dma(TB_SCENARIO=2,FIFO_DEPTH=16,BATCH_COUNT=4,BATCH_TIMEOUT=64,SINK_STALL_EN=1'b1,SINK_STALL_PERIOD=4,SINK_STALL_READY=1) .dut.u_fifo  File: /get/work/krishna.vardhan/git_trees/mtp_pcie_axi/pcie_axi_dma_latency/design/rtl/axis_fifo.sv Line: 165
Warning: [axis_fifo] FIFO full (depth=16) — upstream back-pressured at t=4975000
Time: 4975 ns  Iteration: 0  Process: /tb_pcie_axi_dma(TB_SCENARIO=2,FIFO_DEPTH=16,BATCH_COUNT=4,BATCH_TIMEOUT=64,SINK_STALL_EN=1'b1,SINK_STALL_PERIOD=4,SINK_STALL_READY=1)/dut/u_fifo/Always163_9  Scope: \tb_pcie_axi_dma(TB_SCENARIO=2,FIFO_DEPTH=16,BATCH_COUNT=4,BATCH_TIMEOUT=64,SINK_STALL_EN=1'b1,SINK_STALL_PERIOD=4,SINK_STALL_READY=1) .dut.u_fifo  File: /get/work/krishna.vardhan/git_trees/mtp_pcie_axi/pcie_axi_dma_latency/design/rtl/axis_fifo.sv Line: 165
Warning: [axis_fifo] FIFO full (depth=16) — upstream back-pressured at t=4995000
Time: 4995 ns  Iteration: 0  Process: /tb_pcie_axi_dma(TB_SCENARIO=2,FIFO_DEPTH=16,BATCH_COUNT=4,BATCH_TIMEOUT=64,SINK_STALL_EN=1'b1,SINK_STALL_PERIOD=4,SINK_STALL_READY=1)/dut/u_fifo/Always163_9  Scope: \tb_pcie_axi_dma(TB_SCENARIO=2,FIFO_DEPTH=16,BATCH_COUNT=4,BATCH_TIMEOUT=64,SINK_STALL_EN=1'b1,SINK_STALL_PERIOD=4,SINK_STALL_READY=1) .dut.u_fifo  File: /get/work/krishna.vardhan/git_trees/mtp_pcie_axi/pcie_axi_dma_latency/design/rtl/axis_fifo.sv Line: 165
Warning: [axis_fifo] FIFO full (depth=16) — upstream back-pressured at t=5005000
Time: 5005 ns  Iteration: 0  Process: /tb_pcie_axi_dma(TB_SCENARIO=2,FIFO_DEPTH=16,BATCH_COUNT=4,BATCH_TIMEOUT=64,SINK_STALL_EN=1'b1,SINK_STALL_PERIOD=4,SINK_STALL_READY=1)/dut/u_fifo/Always163_9  Scope: \tb_pcie_axi_dma(TB_SCENARIO=2,FIFO_DEPTH=16,BATCH_COUNT=4,BATCH_TIMEOUT=64,SINK_STALL_EN=1'b1,SINK_STALL_PERIOD=4,SINK_STALL_READY=1) .dut.u_fifo  File: /get/work/krishna.vardhan/git_trees/mtp_pcie_axi/pcie_axi_dma_latency/design/rtl/axis_fifo.sv Line: 165
Warning: [axis_fifo] FIFO full (depth=16) — upstream back-pressured at t=5015000
Time: 5015 ns  Iteration: 0  Process: /tb_pcie_axi_dma(TB_SCENARIO=2,FIFO_DEPTH=16,BATCH_COUNT=4,BATCH_TIMEOUT=64,SINK_STALL_EN=1'b1,SINK_STALL_PERIOD=4,SINK_STALL_READY=1)/dut/u_fifo/Always163_9  Scope: \tb_pcie_axi_dma(TB_SCENARIO=2,FIFO_DEPTH=16,BATCH_COUNT=4,BATCH_TIMEOUT=64,SINK_STALL_EN=1'b1,SINK_STALL_PERIOD=4,SINK_STALL_READY=1) .dut.u_fifo  File: /get/work/krishna.vardhan/git_trees/mtp_pcie_axi/pcie_axi_dma_latency/design/rtl/axis_fifo.sv Line: 165
Warning: [axis_fifo] FIFO full (depth=16) — upstream back-pressured at t=5035000
Time: 5035 ns  Iteration: 0  Process: /tb_pcie_axi_dma(TB_SCENARIO=2,FIFO_DEPTH=16,BATCH_COUNT=4,BATCH_TIMEOUT=64,SINK_STALL_EN=1'b1,SINK_STALL_PERIOD=4,SINK_STALL_READY=1)/dut/u_fifo/Always163_9  Scope: \tb_pcie_axi_dma(TB_SCENARIO=2,FIFO_DEPTH=16,BATCH_COUNT=4,BATCH_TIMEOUT=64,SINK_STALL_EN=1'b1,SINK_STALL_PERIOD=4,SINK_STALL_READY=1) .dut.u_fifo  File: /get/work/krishna.vardhan/git_trees/mtp_pcie_axi/pcie_axi_dma_latency/design/rtl/axis_fifo.sv Line: 165
Warning: [axis_fifo] FIFO full (depth=16) — upstream back-pressured at t=5045000
Time: 5045 ns  Iteration: 0  Process: /tb_pcie_axi_dma(TB_SCENARIO=2,FIFO_DEPTH=16,BATCH_COUNT=4,BATCH_TIMEOUT=64,SINK_STALL_EN=1'b1,SINK_STALL_PERIOD=4,SINK_STALL_READY=1)/dut/u_fifo/Always163_9  Scope: \tb_pcie_axi_dma(TB_SCENARIO=2,FIFO_DEPTH=16,BATCH_COUNT=4,BATCH_TIMEOUT=64,SINK_STALL_EN=1'b1,SINK_STALL_PERIOD=4,SINK_STALL_READY=1) .dut.u_fifo  File: /get/work/krishna.vardhan/git_trees/mtp_pcie_axi/pcie_axi_dma_latency/design/rtl/axis_fifo.sv Line: 165
Warning: [axis_fifo] FIFO full (depth=16) — upstream back-pressured at t=5055000
Time: 5055 ns  Iteration: 0  Process: /tb_pcie_axi_dma(TB_SCENARIO=2,FIFO_DEPTH=16,BATCH_COUNT=4,BATCH_TIMEOUT=64,SINK_STALL_EN=1'b1,SINK_STALL_PERIOD=4,SINK_STALL_READY=1)/dut/u_fifo/Always163_9  Scope: \tb_pcie_axi_dma(TB_SCENARIO=2,FIFO_DEPTH=16,BATCH_COUNT=4,BATCH_TIMEOUT=64,SINK_STALL_EN=1'b1,SINK_STALL_PERIOD=4,SINK_STALL_READY=1) .dut.u_fifo  File: /get/work/krishna.vardhan/git_trees/mtp_pcie_axi/pcie_axi_dma_latency/design/rtl/axis_fifo.sv Line: 165
Warning: [axis_fifo] FIFO full (depth=16) — upstream back-pressured at t=5075000
Time: 5075 ns  Iteration: 0  Process: /tb_pcie_axi_dma(TB_SCENARIO=2,FIFO_DEPTH=16,BATCH_COUNT=4,BATCH_TIMEOUT=64,SINK_STALL_EN=1'b1,SINK_STALL_PERIOD=4,SINK_STALL_READY=1)/dut/u_fifo/Always163_9  Scope: \tb_pcie_axi_dma(TB_SCENARIO=2,FIFO_DEPTH=16,BATCH_COUNT=4,BATCH_TIMEOUT=64,SINK_STALL_EN=1'b1,SINK_STALL_PERIOD=4,SINK_STALL_READY=1) .dut.u_fifo  File: /get/work/krishna.vardhan/git_trees/mtp_pcie_axi/pcie_axi_dma_latency/design/rtl/axis_fifo.sv Line: 165
Warning: [axis_fifo] FIFO full (depth=16) — upstream back-pressured at t=5085000
Time: 5085 ns  Iteration: 0  Process: /tb_pcie_axi_dma(TB_SCENARIO=2,FIFO_DEPTH=16,BATCH_COUNT=4,BATCH_TIMEOUT=64,SINK_STALL_EN=1'b1,SINK_STALL_PERIOD=4,SINK_STALL_READY=1)/dut/u_fifo/Always163_9  Scope: \tb_pcie_axi_dma(TB_SCENARIO=2,FIFO_DEPTH=16,BATCH_COUNT=4,BATCH_TIMEOUT=64,SINK_STALL_EN=1'b1,SINK_STALL_PERIOD=4,SINK_STALL_READY=1) .dut.u_fifo  File: /get/work/krishna.vardhan/git_trees/mtp_pcie_axi/pcie_axi_dma_latency/design/rtl/axis_fifo.sv Line: 165
Warning: [axis_fifo] FIFO full (depth=16) — upstream back-pressured at t=5095000
Time: 5095 ns  Iteration: 0  Process: /tb_pcie_axi_dma(TB_SCENARIO=2,FIFO_DEPTH=16,BATCH_COUNT=4,BATCH_TIMEOUT=64,SINK_STALL_EN=1'b1,SINK_STALL_PERIOD=4,SINK_STALL_READY=1)/dut/u_fifo/Always163_9  Scope: \tb_pcie_axi_dma(TB_SCENARIO=2,FIFO_DEPTH=16,BATCH_COUNT=4,BATCH_TIMEOUT=64,SINK_STALL_EN=1'b1,SINK_STALL_PERIOD=4,SINK_STALL_READY=1) .dut.u_fifo  File: /get/work/krishna.vardhan/git_trees/mtp_pcie_axi/pcie_axi_dma_latency/design/rtl/axis_fifo.sv Line: 165
[sink]  t=5735000  pkt_id=2  size=256B  count=3
[latmon] pkt_id=2  size= 256B  latency=  285 cyc  eff= 0.90 B/cyc
[latmon]  ↳ est: PCIe=116  DMA=72  other=97  total_measured=285
[RESULT]       2 |      256 |           285 |               0.90 |        16 |   YES | BASELINE,FIFO=16,STALL=1/4
[dma_model] t=8705000  pkt_id=3  descriptor setup done  (SETUP_CYCLES=8)
Warning: [axis_fifo] FIFO full (depth=16) — upstream back-pressured at t=8925000
Time: 8925 ns  Iteration: 0  Process: /tb_pcie_axi_dma(TB_SCENARIO=2,FIFO_DEPTH=16,BATCH_COUNT=4,BATCH_TIMEOUT=64,SINK_STALL_EN=1'b1,SINK_STALL_PERIOD=4,SINK_STALL_READY=1)/dut/u_fifo/Always163_9  Scope: \tb_pcie_axi_dma(TB_SCENARIO=2,FIFO_DEPTH=16,BATCH_COUNT=4,BATCH_TIMEOUT=64,SINK_STALL_EN=1'b1,SINK_STALL_PERIOD=4,SINK_STALL_READY=1) .dut.u_fifo  File: /get/work/krishna.vardhan/git_trees/mtp_pcie_axi/pcie_axi_dma_latency/design/rtl/axis_fifo.sv Line: 165
Warning: [axis_fifo] FIFO full (depth=16) — upstream back-pressured at t=8935000
Time: 8935 ns  Iteration: 0  Process: /tb_pcie_axi_dma(TB_SCENARIO=2,FIFO_DEPTH=16,BATCH_COUNT=4,BATCH_TIMEOUT=64,SINK_STALL_EN=1'b1,SINK_STALL_PERIOD=4,SINK_STALL_READY=1)/dut/u_fifo/Always163_9  Scope: \tb_pcie_axi_dma(TB_SCENARIO=2,FIFO_DEPTH=16,BATCH_COUNT=4,BATCH_TIMEOUT=64,SINK_STALL_EN=1'b1,SINK_STALL_PERIOD=4,SINK_STALL_READY=1) .dut.u_fifo  File: /get/work/krishna.vardhan/git_trees/mtp_pcie_axi/pcie_axi_dma_latency/design/rtl/axis_fifo.sv Line: 165
Warning: [axis_fifo] FIFO full (depth=16) — upstream back-pressured at t=8955000
Time: 8955 ns  Iteration: 0  Process: /tb_pcie_axi_dma(TB_SCENARIO=2,FIFO_DEPTH=16,BATCH_COUNT=4,BATCH_TIMEOUT=64,SINK_STALL_EN=1'b1,SINK_STALL_PERIOD=4,SINK_STALL_READY=1)/dut/u_fifo/Always163_9  Scope: \tb_pcie_axi_dma(TB_SCENARIO=2,FIFO_DEPTH=16,BATCH_COUNT=4,BATCH_TIMEOUT=64,SINK_STALL_EN=1'b1,SINK_STALL_PERIOD=4,SINK_STALL_READY=1) .dut.u_fifo  File: /get/work/krishna.vardhan/git_trees/mtp_pcie_axi/pcie_axi_dma_latency/design/rtl/axis_fifo.sv Line: 165
Warning: [axis_fifo] FIFO full (depth=16) — upstream back-pressured at t=8965000
Time: 8965 ns  Iteration: 0  Process: /tb_pcie_axi_dma(TB_SCENARIO=2,FIFO_DEPTH=16,BATCH_COUNT=4,BATCH_TIMEOUT=64,SINK_STALL_EN=1'b1,SINK_STALL_PERIOD=4,SINK_STALL_READY=1)/dut/u_fifo/Always163_9  Scope: \tb_pcie_axi_dma(TB_SCENARIO=2,FIFO_DEPTH=16,BATCH_COUNT=4,BATCH_TIMEOUT=64,SINK_STALL_EN=1'b1,SINK_STALL_PERIOD=4,SINK_STALL_READY=1) .dut.u_fifo  File: /get/work/krishna.vardhan/git_trees/mtp_pcie_axi/pcie_axi_dma_latency/design/rtl/axis_fifo.sv Line: 165
Warning: [axis_fifo] FIFO full (depth=16) — upstream back-pressured at t=8975000
Time: 8975 ns  Iteration: 0  Process: /tb_pcie_axi_dma(TB_SCENARIO=2,FIFO_DEPTH=16,BATCH_COUNT=4,BATCH_TIMEOUT=64,SINK_STALL_EN=1'b1,SINK_STALL_PERIOD=4,SINK_STALL_READY=1)/dut/u_fifo/Always163_9  Scope: \tb_pcie_axi_dma(TB_SCENARIO=2,FIFO_DEPTH=16,BATCH_COUNT=4,BATCH_TIMEOUT=64,SINK_STALL_EN=1'b1,SINK_STALL_PERIOD=4,SINK_STALL_READY=1) .dut.u_fifo  File: /get/work/krishna.vardhan/git_trees/mtp_pcie_axi/pcie_axi_dma_latency/design/rtl/axis_fifo.sv Line: 165
Warning: [axis_fifo] FIFO full (depth=16) — upstream back-pressured at t=8995000
Time: 8995 ns  Iteration: 0  Process: /tb_pcie_axi_dma(TB_SCENARIO=2,FIFO_DEPTH=16,BATCH_COUNT=4,BATCH_TIMEOUT=64,SINK_STALL_EN=1'b1,SINK_STALL_PERIOD=4,SINK_STALL_READY=1)/dut/u_fifo/Always163_9  Scope: \tb_pcie_axi_dma(TB_SCENARIO=2,FIFO_DEPTH=16,BATCH_COUNT=4,BATCH_TIMEOUT=64,SINK_STALL_EN=1'b1,SINK_STALL_PERIOD=4,SINK_STALL_READY=1) .dut.u_fifo  File: /get/work/krishna.vardhan/git_trees/mtp_pcie_axi/pcie_axi_dma_latency/design/rtl/axis_fifo.sv Line: 165
Warning: [axis_fifo] FIFO full (depth=16) — upstream back-pressured at t=9005000
Time: 9005 ns  Iteration: 0  Process: /tb_pcie_axi_dma(TB_SCENARIO=2,FIFO_DEPTH=16,BATCH_COUNT=4,BATCH_TIMEOUT=64,SINK_STALL_EN=1'b1,SINK_STALL_PERIOD=4,SINK_STALL_READY=1)/dut/u_fifo/Always163_9  Scope: \tb_pcie_axi_dma(TB_SCENARIO=2,FIFO_DEPTH=16,BATCH_COUNT=4,BATCH_TIMEOUT=64,SINK_STALL_EN=1'b1,SINK_STALL_PERIOD=4,SINK_STALL_READY=1) .dut.u_fifo  File: /get/work/krishna.vardhan/git_trees/mtp_pcie_axi/pcie_axi_dma_latency/design/rtl/axis_fifo.sv Line: 165
Warning: [axis_fifo] FIFO full (depth=16) — upstream back-pressured at t=9015000
Time: 9015 ns  Iteration: 0  Process: /tb_pcie_axi_dma(TB_SCENARIO=2,FIFO_DEPTH=16,BATCH_COUNT=4,BATCH_TIMEOUT=64,SINK_STALL_EN=1'b1,SINK_STALL_PERIOD=4,SINK_STALL_READY=1)/dut/u_fifo/Always163_9  Scope: \tb_pcie_axi_dma(TB_SCENARIO=2,FIFO_DEPTH=16,BATCH_COUNT=4,BATCH_TIMEOUT=64,SINK_STALL_EN=1'b1,SINK_STALL_PERIOD=4,SINK_STALL_READY=1) .dut.u_fifo  File: /get/work/krishna.vardhan/git_trees/mtp_pcie_axi/pcie_axi_dma_latency/design/rtl/axis_fifo.sv Line: 165
Warning: [axis_fifo] FIFO full (depth=16) — upstream back-pressured at t=9035000
Time: 9035 ns  Iteration: 0  Process: /tb_pcie_axi_dma(TB_SCENARIO=2,FIFO_DEPTH=16,BATCH_COUNT=4,BATCH_TIMEOUT=64,SINK_STALL_EN=1'b1,SINK_STALL_PERIOD=4,SINK_STALL_READY=1)/dut/u_fifo/Always163_9  Scope: \tb_pcie_axi_dma(TB_SCENARIO=2,FIFO_DEPTH=16,BATCH_COUNT=4,BATCH_TIMEOUT=64,SINK_STALL_EN=1'b1,SINK_STALL_PERIOD=4,SINK_STALL_READY=1) .dut.u_fifo  File: /get/work/krishna.vardhan/git_trees/mtp_pcie_axi/pcie_axi_dma_latency/design/rtl/axis_fifo.sv Line: 165
Warning: [axis_fifo] FIFO full (depth=16) — upstream back-pressured at t=9045000
Time: 9045 ns  Iteration: 0  Process: /tb_pcie_axi_dma(TB_SCENARIO=2,FIFO_DEPTH=16,BATCH_COUNT=4,BATCH_TIMEOUT=64,SINK_STALL_EN=1'b1,SINK_STALL_PERIOD=4,SINK_STALL_READY=1)/dut/u_fifo/Always163_9  Scope: \tb_pcie_axi_dma(TB_SCENARIO=2,FIFO_DEPTH=16,BATCH_COUNT=4,BATCH_TIMEOUT=64,SINK_STALL_EN=1'b1,SINK_STALL_PERIOD=4,SINK_STALL_READY=1) .dut.u_fifo  File: /get/work/krishna.vardhan/git_trees/mtp_pcie_axi/pcie_axi_dma_latency/design/rtl/axis_fifo.sv Line: 165
Warning: [axis_fifo] FIFO full (depth=16) — upstream back-pressured at t=9055000
Time: 9055 ns  Iteration: 0  Process: /tb_pcie_axi_dma(TB_SCENARIO=2,FIFO_DEPTH=16,BATCH_COUNT=4,BATCH_TIMEOUT=64,SINK_STALL_EN=1'b1,SINK_STALL_PERIOD=4,SINK_STALL_READY=1)/dut/u_fifo/Always163_9  Scope: \tb_pcie_axi_dma(TB_SCENARIO=2,FIFO_DEPTH=16,BATCH_COUNT=4,BATCH_TIMEOUT=64,SINK_STALL_EN=1'b1,SINK_STALL_PERIOD=4,SINK_STALL_READY=1) .dut.u_fifo  File: /get/work/krishna.vardhan/git_trees/mtp_pcie_axi/pcie_axi_dma_latency/design/rtl/axis_fifo.sv Line: 165
Warning: [axis_fifo] FIFO full (depth=16) — upstream back-pressured at t=9075000
Time: 9075 ns  Iteration: 0  Process: /tb_pcie_axi_dma(TB_SCENARIO=2,FIFO_DEPTH=16,BATCH_COUNT=4,BATCH_TIMEOUT=64,SINK_STALL_EN=1'b1,SINK_STALL_PERIOD=4,SINK_STALL_READY=1)/dut/u_fifo/Always163_9  Scope: \tb_pcie_axi_dma(TB_SCENARIO=2,FIFO_DEPTH=16,BATCH_COUNT=4,BATCH_TIMEOUT=64,SINK_STALL_EN=1'b1,SINK_STALL_PERIOD=4,SINK_STALL_READY=1) .dut.u_fifo  File: /get/work/krishna.vardhan/git_trees/mtp_pcie_axi/pcie_axi_dma_latency/design/rtl/axis_fifo.sv Line: 165
Warning: [axis_fifo] FIFO full (depth=16) — upstream back-pressured at t=9085000
Time: 9085 ns  Iteration: 0  Process: /tb_pcie_axi_dma(TB_SCENARIO=2,FIFO_DEPTH=16,BATCH_COUNT=4,BATCH_TIMEOUT=64,SINK_STALL_EN=1'b1,SINK_STALL_PERIOD=4,SINK_STALL_READY=1)/dut/u_fifo/Always163_9  Scope: \tb_pcie_axi_dma(TB_SCENARIO=2,FIFO_DEPTH=16,BATCH_COUNT=4,BATCH_TIMEOUT=64,SINK_STALL_EN=1'b1,SINK_STALL_PERIOD=4,SINK_STALL_READY=1) .dut.u_fifo  File: /get/work/krishna.vardhan/git_trees/mtp_pcie_axi/pcie_axi_dma_latency/design/rtl/axis_fifo.sv Line: 165
Warning: [axis_fifo] FIFO full (depth=16) — upstream back-pressured at t=9095000
Time: 9095 ns  Iteration: 0  Process: /tb_pcie_axi_dma(TB_SCENARIO=2,FIFO_DEPTH=16,BATCH_COUNT=4,BATCH_TIMEOUT=64,SINK_STALL_EN=1'b1,SINK_STALL_PERIOD=4,SINK_STALL_READY=1)/dut/u_fifo/Always163_9  Scope: \tb_pcie_axi_dma(TB_SCENARIO=2,FIFO_DEPTH=16,BATCH_COUNT=4,BATCH_TIMEOUT=64,SINK_STALL_EN=1'b1,SINK_STALL_PERIOD=4,SINK_STALL_READY=1) .dut.u_fifo  File: /get/work/krishna.vardhan/git_trees/mtp_pcie_axi/pcie_axi_dma_latency/design/rtl/axis_fifo.sv Line: 165
Warning: [axis_fifo] FIFO full (depth=16) — upstream back-pressured at t=9115000
Time: 9115 ns  Iteration: 0  Process: /tb_pcie_axi_dma(TB_SCENARIO=2,FIFO_DEPTH=16,BATCH_COUNT=4,BATCH_TIMEOUT=64,SINK_STALL_EN=1'b1,SINK_STALL_PERIOD=4,SINK_STALL_READY=1)/dut/u_fifo/Always163_9  Scope: \tb_pcie_axi_dma(TB_SCENARIO=2,FIFO_DEPTH=16,BATCH_COUNT=4,BATCH_TIMEOUT=64,SINK_STALL_EN=1'b1,SINK_STALL_PERIOD=4,SINK_STALL_READY=1) .dut.u_fifo  File: /get/work/krishna.vardhan/git_trees/mtp_pcie_axi/pcie_axi_dma_latency/design/rtl/axis_fifo.sv Line: 165
Warning: [axis_fifo] FIFO full (depth=16) — upstream back-pressured at t=9125000
Time: 9125 ns  Iteration: 0  Process: /tb_pcie_axi_dma(TB_SCENARIO=2,FIFO_DEPTH=16,BATCH_COUNT=4,BATCH_TIMEOUT=64,SINK_STALL_EN=1'b1,SINK_STALL_PERIOD=4,SINK_STALL_READY=1)/dut/u_fifo/Always163_9  Scope: \tb_pcie_axi_dma(TB_SCENARIO=2,FIFO_DEPTH=16,BATCH_COUNT=4,BATCH_TIMEOUT=64,SINK_STALL_EN=1'b1,SINK_STALL_PERIOD=4,SINK_STALL_READY=1) .dut.u_fifo  File: /get/work/krishna.vardhan/git_trees/mtp_pcie_axi/pcie_axi_dma_latency/design/rtl/axis_fifo.sv Line: 165
Warning: [axis_fifo] FIFO full (depth=16) — upstream back-pressured at t=9135000
Time: 9135 ns  Iteration: 0  Process: /tb_pcie_axi_dma(TB_SCENARIO=2,FIFO_DEPTH=16,BATCH_COUNT=4,BATCH_TIMEOUT=64,SINK_STALL_EN=1'b1,SINK_STALL_PERIOD=4,SINK_STALL_READY=1)/dut/u_fifo/Always163_9  Scope: \tb_pcie_axi_dma(TB_SCENARIO=2,FIFO_DEPTH=16,BATCH_COUNT=4,BATCH_TIMEOUT=64,SINK_STALL_EN=1'b1,SINK_STALL_PERIOD=4,SINK_STALL_READY=1) .dut.u_fifo  File: /get/work/krishna.vardhan/git_trees/mtp_pcie_axi/pcie_axi_dma_latency/design/rtl/axis_fifo.sv Line: 165
Warning: [axis_fifo] FIFO full (depth=16) — upstream back-pressured at t=9155000
Time: 9155 ns  Iteration: 0  Process: /tb_pcie_axi_dma(TB_SCENARIO=2,FIFO_DEPTH=16,BATCH_COUNT=4,BATCH_TIMEOUT=64,SINK_STALL_EN=1'b1,SINK_STALL_PERIOD=4,SINK_STALL_READY=1)/dut/u_fifo/Always163_9  Scope: \tb_pcie_axi_dma(TB_SCENARIO=2,FIFO_DEPTH=16,BATCH_COUNT=4,BATCH_TIMEOUT=64,SINK_STALL_EN=1'b1,SINK_STALL_PERIOD=4,SINK_STALL_READY=1) .dut.u_fifo  File: /get/work/krishna.vardhan/git_trees/mtp_pcie_axi/pcie_axi_dma_latency/design/rtl/axis_fifo.sv Line: 165
Warning: [axis_fifo] FIFO full (depth=16) — upstream back-pressured at t=9165000
Time: 9165 ns  Iteration: 0  Process: /tb_pcie_axi_dma(TB_SCENARIO=2,FIFO_DEPTH=16,BATCH_COUNT=4,BATCH_TIMEOUT=64,SINK_STALL_EN=1'b1,SINK_STALL_PERIOD=4,SINK_STALL_READY=1)/dut/u_fifo/Always163_9  Scope: \tb_pcie_axi_dma(TB_SCENARIO=2,FIFO_DEPTH=16,BATCH_COUNT=4,BATCH_TIMEOUT=64,SINK_STALL_EN=1'b1,SINK_STALL_PERIOD=4,SINK_STALL_READY=1) .dut.u_fifo  File: /get/work/krishna.vardhan/git_trees/mtp_pcie_axi/pcie_axi_dma_latency/design/rtl/axis_fifo.sv Line: 165
Warning: [axis_fifo] FIFO full (depth=16) — upstream back-pressured at t=9175000
Time: 9175 ns  Iteration: 0  Process: /tb_pcie_axi_dma(TB_SCENARIO=2,FIFO_DEPTH=16,BATCH_COUNT=4,BATCH_TIMEOUT=64,SINK_STALL_EN=1'b1,SINK_STALL_PERIOD=4,SINK_STALL_READY=1)/dut/u_fifo/Always163_9  Scope: \tb_pcie_axi_dma(TB_SCENARIO=2,FIFO_DEPTH=16,BATCH_COUNT=4,BATCH_TIMEOUT=64,SINK_STALL_EN=1'b1,SINK_STALL_PERIOD=4,SINK_STALL_READY=1) .dut.u_fifo  File: /get/work/krishna.vardhan/git_trees/mtp_pcie_axi/pcie_axi_dma_latency/design/rtl/axis_fifo.sv Line: 165
Warning: [axis_fifo] FIFO full (depth=16) — upstream back-pressured at t=9195000
Time: 9195 ns  Iteration: 0  Process: /tb_pcie_axi_dma(TB_SCENARIO=2,FIFO_DEPTH=16,BATCH_COUNT=4,BATCH_TIMEOUT=64,SINK_STALL_EN=1'b1,SINK_STALL_PERIOD=4,SINK_STALL_READY=1)/dut/u_fifo/Always163_9  Scope: \tb_pcie_axi_dma(TB_SCENARIO=2,FIFO_DEPTH=16,BATCH_COUNT=4,BATCH_TIMEOUT=64,SINK_STALL_EN=1'b1,SINK_STALL_PERIOD=4,SINK_STALL_READY=1) .dut.u_fifo  File: /get/work/krishna.vardhan/git_trees/mtp_pcie_axi/pcie_axi_dma_latency/design/rtl/axis_fifo.sv Line: 165
Warning: [axis_fifo] FIFO full (depth=16) — upstream back-pressured at t=9205000
Time: 9205 ns  Iteration: 0  Process: /tb_pcie_axi_dma(TB_SCENARIO=2,FIFO_DEPTH=16,BATCH_COUNT=4,BATCH_TIMEOUT=64,SINK_STALL_EN=1'b1,SINK_STALL_PERIOD=4,SINK_STALL_READY=1)/dut/u_fifo/Always163_9  Scope: \tb_pcie_axi_dma(TB_SCENARIO=2,FIFO_DEPTH=16,BATCH_COUNT=4,BATCH_TIMEOUT=64,SINK_STALL_EN=1'b1,SINK_STALL_PERIOD=4,SINK_STALL_READY=1) .dut.u_fifo  File: /get/work/krishna.vardhan/git_trees/mtp_pcie_axi/pcie_axi_dma_latency/design/rtl/axis_fifo.sv Line: 165
Warning: [axis_fifo] FIFO full (depth=16) — upstream back-pressured at t=9215000
Time: 9215 ns  Iteration: 0  Process: /tb_pcie_axi_dma(TB_SCENARIO=2,FIFO_DEPTH=16,BATCH_COUNT=4,BATCH_TIMEOUT=64,SINK_STALL_EN=1'b1,SINK_STALL_PERIOD=4,SINK_STALL_READY=1)/dut/u_fifo/Always163_9  Scope: \tb_pcie_axi_dma(TB_SCENARIO=2,FIFO_DEPTH=16,BATCH_COUNT=4,BATCH_TIMEOUT=64,SINK_STALL_EN=1'b1,SINK_STALL_PERIOD=4,SINK_STALL_READY=1) .dut.u_fifo  File: /get/work/krishna.vardhan/git_trees/mtp_pcie_axi/pcie_axi_dma_latency/design/rtl/axis_fifo.sv Line: 165
Warning: [axis_fifo] FIFO full (depth=16) — upstream back-pressured at t=9235000
Time: 9235 ns  Iteration: 0  Process: /tb_pcie_axi_dma(TB_SCENARIO=2,FIFO_DEPTH=16,BATCH_COUNT=4,BATCH_TIMEOUT=64,SINK_STALL_EN=1'b1,SINK_STALL_PERIOD=4,SINK_STALL_READY=1)/dut/u_fifo/Always163_9  Scope: \tb_pcie_axi_dma(TB_SCENARIO=2,FIFO_DEPTH=16,BATCH_COUNT=4,BATCH_TIMEOUT=64,SINK_STALL_EN=1'b1,SINK_STALL_PERIOD=4,SINK_STALL_READY=1) .dut.u_fifo  File: /get/work/krishna.vardhan/git_trees/mtp_pcie_axi/pcie_axi_dma_latency/design/rtl/axis_fifo.sv Line: 165
Warning: [axis_fifo] FIFO full (depth=16) — upstream back-pressured at t=9245000
Time: 9245 ns  Iteration: 0  Process: /tb_pcie_axi_dma(TB_SCENARIO=2,FIFO_DEPTH=16,BATCH_COUNT=4,BATCH_TIMEOUT=64,SINK_STALL_EN=1'b1,SINK_STALL_PERIOD=4,SINK_STALL_READY=1)/dut/u_fifo/Always163_9  Scope: \tb_pcie_axi_dma(TB_SCENARIO=2,FIFO_DEPTH=16,BATCH_COUNT=4,BATCH_TIMEOUT=64,SINK_STALL_EN=1'b1,SINK_STALL_PERIOD=4,SINK_STALL_READY=1) .dut.u_fifo  File: /get/work/krishna.vardhan/git_trees/mtp_pcie_axi/pcie_axi_dma_latency/design/rtl/axis_fifo.sv Line: 165
Warning: [axis_fifo] FIFO full (depth=16) — upstream back-pressured at t=9255000
Time: 9255 ns  Iteration: 0  Process: /tb_pcie_axi_dma(TB_SCENARIO=2,FIFO_DEPTH=16,BATCH_COUNT=4,BATCH_TIMEOUT=64,SINK_STALL_EN=1'b1,SINK_STALL_PERIOD=4,SINK_STALL_READY=1)/dut/u_fifo/Always163_9  Scope: \tb_pcie_axi_dma(TB_SCENARIO=2,FIFO_DEPTH=16,BATCH_COUNT=4,BATCH_TIMEOUT=64,SINK_STALL_EN=1'b1,SINK_STALL_PERIOD=4,SINK_STALL_READY=1) .dut.u_fifo  File: /get/work/krishna.vardhan/git_trees/mtp_pcie_axi/pcie_axi_dma_latency/design/rtl/axis_fifo.sv Line: 165
Warning: [axis_fifo] FIFO full (depth=16) — upstream back-pressured at t=9275000
Time: 9275 ns  Iteration: 0  Process: /tb_pcie_axi_dma(TB_SCENARIO=2,FIFO_DEPTH=16,BATCH_COUNT=4,BATCH_TIMEOUT=64,SINK_STALL_EN=1'b1,SINK_STALL_PERIOD=4,SINK_STALL_READY=1)/dut/u_fifo/Always163_9  Scope: \tb_pcie_axi_dma(TB_SCENARIO=2,FIFO_DEPTH=16,BATCH_COUNT=4,BATCH_TIMEOUT=64,SINK_STALL_EN=1'b1,SINK_STALL_PERIOD=4,SINK_STALL_READY=1) .dut.u_fifo  File: /get/work/krishna.vardhan/git_trees/mtp_pcie_axi/pcie_axi_dma_latency/design/rtl/axis_fifo.sv Line: 165
Warning: [axis_fifo] FIFO full (depth=16) — upstream back-pressured at t=9285000
Time: 9285 ns  Iteration: 0  Process: /tb_pcie_axi_dma(TB_SCENARIO=2,FIFO_DEPTH=16,BATCH_COUNT=4,BATCH_TIMEOUT=64,SINK_STALL_EN=1'b1,SINK_STALL_PERIOD=4,SINK_STALL_READY=1)/dut/u_fifo/Always163_9  Scope: \tb_pcie_axi_dma(TB_SCENARIO=2,FIFO_DEPTH=16,BATCH_COUNT=4,BATCH_TIMEOUT=64,SINK_STALL_EN=1'b1,SINK_STALL_PERIOD=4,SINK_STALL_READY=1) .dut.u_fifo  File: /get/work/krishna.vardhan/git_trees/mtp_pcie_axi/pcie_axi_dma_latency/design/rtl/axis_fifo.sv Line: 165
Warning: [axis_fifo] FIFO full (depth=16) — upstream back-pressured at t=9295000
Time: 9295 ns  Iteration: 0  Process: /tb_pcie_axi_dma(TB_SCENARIO=2,FIFO_DEPTH=16,BATCH_COUNT=4,BATCH_TIMEOUT=64,SINK_STALL_EN=1'b1,SINK_STALL_PERIOD=4,SINK_STALL_READY=1)/dut/u_fifo/Always163_9  Scope: \tb_pcie_axi_dma(TB_SCENARIO=2,FIFO_DEPTH=16,BATCH_COUNT=4,BATCH_TIMEOUT=64,SINK_STALL_EN=1'b1,SINK_STALL_PERIOD=4,SINK_STALL_READY=1) .dut.u_fifo  File: /get/work/krishna.vardhan/git_trees/mtp_pcie_axi/pcie_axi_dma_latency/design/rtl/axis_fifo.sv Line: 165
Warning: [axis_fifo] FIFO full (depth=16) — upstream back-pressured at t=9315000
Time: 9315 ns  Iteration: 0  Process: /tb_pcie_axi_dma(TB_SCENARIO=2,FIFO_DEPTH=16,BATCH_COUNT=4,BATCH_TIMEOUT=64,SINK_STALL_EN=1'b1,SINK_STALL_PERIOD=4,SINK_STALL_READY=1)/dut/u_fifo/Always163_9  Scope: \tb_pcie_axi_dma(TB_SCENARIO=2,FIFO_DEPTH=16,BATCH_COUNT=4,BATCH_TIMEOUT=64,SINK_STALL_EN=1'b1,SINK_STALL_PERIOD=4,SINK_STALL_READY=1) .dut.u_fifo  File: /get/work/krishna.vardhan/git_trees/mtp_pcie_axi/pcie_axi_dma_latency/design/rtl/axis_fifo.sv Line: 165
Warning: [axis_fifo] FIFO full (depth=16) — upstream back-pressured at t=9325000
Time: 9325 ns  Iteration: 0  Process: /tb_pcie_axi_dma(TB_SCENARIO=2,FIFO_DEPTH=16,BATCH_COUNT=4,BATCH_TIMEOUT=64,SINK_STALL_EN=1'b1,SINK_STALL_PERIOD=4,SINK_STALL_READY=1)/dut/u_fifo/Always163_9  Scope: \tb_pcie_axi_dma(TB_SCENARIO=2,FIFO_DEPTH=16,BATCH_COUNT=4,BATCH_TIMEOUT=64,SINK_STALL_EN=1'b1,SINK_STALL_PERIOD=4,SINK_STALL_READY=1) .dut.u_fifo  File: /get/work/krishna.vardhan/git_trees/mtp_pcie_axi/pcie_axi_dma_latency/design/rtl/axis_fifo.sv Line: 165
Warning: [axis_fifo] FIFO full (depth=16) — upstream back-pressured at t=9335000
Time: 9335 ns  Iteration: 0  Process: /tb_pcie_axi_dma(TB_SCENARIO=2,FIFO_DEPTH=16,BATCH_COUNT=4,BATCH_TIMEOUT=64,SINK_STALL_EN=1'b1,SINK_STALL_PERIOD=4,SINK_STALL_READY=1)/dut/u_fifo/Always163_9  Scope: \tb_pcie_axi_dma(TB_SCENARIO=2,FIFO_DEPTH=16,BATCH_COUNT=4,BATCH_TIMEOUT=64,SINK_STALL_EN=1'b1,SINK_STALL_PERIOD=4,SINK_STALL_READY=1) .dut.u_fifo  File: /get/work/krishna.vardhan/git_trees/mtp_pcie_axi/pcie_axi_dma_latency/design/rtl/axis_fifo.sv Line: 165
Warning: [axis_fifo] FIFO full (depth=16) — upstream back-pressured at t=9355000
Time: 9355 ns  Iteration: 0  Process: /tb_pcie_axi_dma(TB_SCENARIO=2,FIFO_DEPTH=16,BATCH_COUNT=4,BATCH_TIMEOUT=64,SINK_STALL_EN=1'b1,SINK_STALL_PERIOD=4,SINK_STALL_READY=1)/dut/u_fifo/Always163_9  Scope: \tb_pcie_axi_dma(TB_SCENARIO=2,FIFO_DEPTH=16,BATCH_COUNT=4,BATCH_TIMEOUT=64,SINK_STALL_EN=1'b1,SINK_STALL_PERIOD=4,SINK_STALL_READY=1) .dut.u_fifo  File: /get/work/krishna.vardhan/git_trees/mtp_pcie_axi/pcie_axi_dma_latency/design/rtl/axis_fifo.sv Line: 165
Warning: [axis_fifo] FIFO full (depth=16) — upstream back-pressured at t=9365000
Time: 9365 ns  Iteration: 0  Process: /tb_pcie_axi_dma(TB_SCENARIO=2,FIFO_DEPTH=16,BATCH_COUNT=4,BATCH_TIMEOUT=64,SINK_STALL_EN=1'b1,SINK_STALL_PERIOD=4,SINK_STALL_READY=1)/dut/u_fifo/Always163_9  Scope: \tb_pcie_axi_dma(TB_SCENARIO=2,FIFO_DEPTH=16,BATCH_COUNT=4,BATCH_TIMEOUT=64,SINK_STALL_EN=1'b1,SINK_STALL_PERIOD=4,SINK_STALL_READY=1) .dut.u_fifo  File: /get/work/krishna.vardhan/git_trees/mtp_pcie_axi/pcie_axi_dma_latency/design/rtl/axis_fifo.sv Line: 165
Warning: [axis_fifo] FIFO full (depth=16) — upstream back-pressured at t=9375000
Time: 9375 ns  Iteration: 0  Process: /tb_pcie_axi_dma(TB_SCENARIO=2,FIFO_DEPTH=16,BATCH_COUNT=4,BATCH_TIMEOUT=64,SINK_STALL_EN=1'b1,SINK_STALL_PERIOD=4,SINK_STALL_READY=1)/dut/u_fifo/Always163_9  Scope: \tb_pcie_axi_dma(TB_SCENARIO=2,FIFO_DEPTH=16,BATCH_COUNT=4,BATCH_TIMEOUT=64,SINK_STALL_EN=1'b1,SINK_STALL_PERIOD=4,SINK_STALL_READY=1) .dut.u_fifo  File: /get/work/krishna.vardhan/git_trees/mtp_pcie_axi/pcie_axi_dma_latency/design/rtl/axis_fifo.sv Line: 165
Warning: [axis_fifo] FIFO full (depth=16) — upstream back-pressured at t=9395000
Time: 9395 ns  Iteration: 0  Process: /tb_pcie_axi_dma(TB_SCENARIO=2,FIFO_DEPTH=16,BATCH_COUNT=4,BATCH_TIMEOUT=64,SINK_STALL_EN=1'b1,SINK_STALL_PERIOD=4,SINK_STALL_READY=1)/dut/u_fifo/Always163_9  Scope: \tb_pcie_axi_dma(TB_SCENARIO=2,FIFO_DEPTH=16,BATCH_COUNT=4,BATCH_TIMEOUT=64,SINK_STALL_EN=1'b1,SINK_STALL_PERIOD=4,SINK_STALL_READY=1) .dut.u_fifo  File: /get/work/krishna.vardhan/git_trees/mtp_pcie_axi/pcie_axi_dma_latency/design/rtl/axis_fifo.sv Line: 165
Warning: [axis_fifo] FIFO full (depth=16) — upstream back-pressured at t=9405000
Time: 9405 ns  Iteration: 0  Process: /tb_pcie_axi_dma(TB_SCENARIO=2,FIFO_DEPTH=16,BATCH_COUNT=4,BATCH_TIMEOUT=64,SINK_STALL_EN=1'b1,SINK_STALL_PERIOD=4,SINK_STALL_READY=1)/dut/u_fifo/Always163_9  Scope: \tb_pcie_axi_dma(TB_SCENARIO=2,FIFO_DEPTH=16,BATCH_COUNT=4,BATCH_TIMEOUT=64,SINK_STALL_EN=1'b1,SINK_STALL_PERIOD=4,SINK_STALL_READY=1) .dut.u_fifo  File: /get/work/krishna.vardhan/git_trees/mtp_pcie_axi/pcie_axi_dma_latency/design/rtl/axis_fifo.sv Line: 165
Warning: [axis_fifo] FIFO full (depth=16) — upstream back-pressured at t=9415000
Time: 9415 ns  Iteration: 0  Process: /tb_pcie_axi_dma(TB_SCENARIO=2,FIFO_DEPTH=16,BATCH_COUNT=4,BATCH_TIMEOUT=64,SINK_STALL_EN=1'b1,SINK_STALL_PERIOD=4,SINK_STALL_READY=1)/dut/u_fifo/Always163_9  Scope: \tb_pcie_axi_dma(TB_SCENARIO=2,FIFO_DEPTH=16,BATCH_COUNT=4,BATCH_TIMEOUT=64,SINK_STALL_EN=1'b1,SINK_STALL_PERIOD=4,SINK_STALL_READY=1) .dut.u_fifo  File: /get/work/krishna.vardhan/git_trees/mtp_pcie_axi/pcie_axi_dma_latency/design/rtl/axis_fifo.sv Line: 165
Warning: [axis_fifo] FIFO full (depth=16) — upstream back-pressured at t=9435000
Time: 9435 ns  Iteration: 0  Process: /tb_pcie_axi_dma(TB_SCENARIO=2,FIFO_DEPTH=16,BATCH_COUNT=4,BATCH_TIMEOUT=64,SINK_STALL_EN=1'b1,SINK_STALL_PERIOD=4,SINK_STALL_READY=1)/dut/u_fifo/Always163_9  Scope: \tb_pcie_axi_dma(TB_SCENARIO=2,FIFO_DEPTH=16,BATCH_COUNT=4,BATCH_TIMEOUT=64,SINK_STALL_EN=1'b1,SINK_STALL_PERIOD=4,SINK_STALL_READY=1) .dut.u_fifo  File: /get/work/krishna.vardhan/git_trees/mtp_pcie_axi/pcie_axi_dma_latency/design/rtl/axis_fifo.sv Line: 165
Warning: [axis_fifo] FIFO full (depth=16) — upstream back-pressured at t=9445000
Time: 9445 ns  Iteration: 0  Process: /tb_pcie_axi_dma(TB_SCENARIO=2,FIFO_DEPTH=16,BATCH_COUNT=4,BATCH_TIMEOUT=64,SINK_STALL_EN=1'b1,SINK_STALL_PERIOD=4,SINK_STALL_READY=1)/dut/u_fifo/Always163_9  Scope: \tb_pcie_axi_dma(TB_SCENARIO=2,FIFO_DEPTH=16,BATCH_COUNT=4,BATCH_TIMEOUT=64,SINK_STALL_EN=1'b1,SINK_STALL_PERIOD=4,SINK_STALL_READY=1) .dut.u_fifo  File: /get/work/krishna.vardhan/git_trees/mtp_pcie_axi/pcie_axi_dma_latency/design/rtl/axis_fifo.sv Line: 165
Warning: [axis_fifo] FIFO full (depth=16) — upstream back-pressured at t=9455000
Time: 9455 ns  Iteration: 0  Process: /tb_pcie_axi_dma(TB_SCENARIO=2,FIFO_DEPTH=16,BATCH_COUNT=4,BATCH_TIMEOUT=64,SINK_STALL_EN=1'b1,SINK_STALL_PERIOD=4,SINK_STALL_READY=1)/dut/u_fifo/Always163_9  Scope: \tb_pcie_axi_dma(TB_SCENARIO=2,FIFO_DEPTH=16,BATCH_COUNT=4,BATCH_TIMEOUT=64,SINK_STALL_EN=1'b1,SINK_STALL_PERIOD=4,SINK_STALL_READY=1) .dut.u_fifo  File: /get/work/krishna.vardhan/git_trees/mtp_pcie_axi/pcie_axi_dma_latency/design/rtl/axis_fifo.sv Line: 165
Warning: [axis_fifo] FIFO full (depth=16) — upstream back-pressured at t=9475000
Time: 9475 ns  Iteration: 0  Process: /tb_pcie_axi_dma(TB_SCENARIO=2,FIFO_DEPTH=16,BATCH_COUNT=4,BATCH_TIMEOUT=64,SINK_STALL_EN=1'b1,SINK_STALL_PERIOD=4,SINK_STALL_READY=1)/dut/u_fifo/Always163_9  Scope: \tb_pcie_axi_dma(TB_SCENARIO=2,FIFO_DEPTH=16,BATCH_COUNT=4,BATCH_TIMEOUT=64,SINK_STALL_EN=1'b1,SINK_STALL_PERIOD=4,SINK_STALL_READY=1) .dut.u_fifo  File: /get/work/krishna.vardhan/git_trees/mtp_pcie_axi/pcie_axi_dma_latency/design/rtl/axis_fifo.sv Line: 165
Warning: [axis_fifo] FIFO full (depth=16) — upstream back-pressured at t=9485000
Time: 9485 ns  Iteration: 0  Process: /tb_pcie_axi_dma(TB_SCENARIO=2,FIFO_DEPTH=16,BATCH_COUNT=4,BATCH_TIMEOUT=64,SINK_STALL_EN=1'b1,SINK_STALL_PERIOD=4,SINK_STALL_READY=1)/dut/u_fifo/Always163_9  Scope: \tb_pcie_axi_dma(TB_SCENARIO=2,FIFO_DEPTH=16,BATCH_COUNT=4,BATCH_TIMEOUT=64,SINK_STALL_EN=1'b1,SINK_STALL_PERIOD=4,SINK_STALL_READY=1) .dut.u_fifo  File: /get/work/krishna.vardhan/git_trees/mtp_pcie_axi/pcie_axi_dma_latency/design/rtl/axis_fifo.sv Line: 165
Warning: [axis_fifo] FIFO full (depth=16) — upstream back-pressured at t=9495000
Time: 9495 ns  Iteration: 0  Process: /tb_pcie_axi_dma(TB_SCENARIO=2,FIFO_DEPTH=16,BATCH_COUNT=4,BATCH_TIMEOUT=64,SINK_STALL_EN=1'b1,SINK_STALL_PERIOD=4,SINK_STALL_READY=1)/dut/u_fifo/Always163_9  Scope: \tb_pcie_axi_dma(TB_SCENARIO=2,FIFO_DEPTH=16,BATCH_COUNT=4,BATCH_TIMEOUT=64,SINK_STALL_EN=1'b1,SINK_STALL_PERIOD=4,SINK_STALL_READY=1) .dut.u_fifo  File: /get/work/krishna.vardhan/git_trees/mtp_pcie_axi/pcie_axi_dma_latency/design/rtl/axis_fifo.sv Line: 165
Warning: [axis_fifo] FIFO full (depth=16) — upstream back-pressured at t=9515000
Time: 9515 ns  Iteration: 0  Process: /tb_pcie_axi_dma(TB_SCENARIO=2,FIFO_DEPTH=16,BATCH_COUNT=4,BATCH_TIMEOUT=64,SINK_STALL_EN=1'b1,SINK_STALL_PERIOD=4,SINK_STALL_READY=1)/dut/u_fifo/Always163_9  Scope: \tb_pcie_axi_dma(TB_SCENARIO=2,FIFO_DEPTH=16,BATCH_COUNT=4,BATCH_TIMEOUT=64,SINK_STALL_EN=1'b1,SINK_STALL_PERIOD=4,SINK_STALL_READY=1) .dut.u_fifo  File: /get/work/krishna.vardhan/git_trees/mtp_pcie_axi/pcie_axi_dma_latency/design/rtl/axis_fifo.sv Line: 165
Warning: [axis_fifo] FIFO full (depth=16) — upstream back-pressured at t=9525000
Time: 9525 ns  Iteration: 0  Process: /tb_pcie_axi_dma(TB_SCENARIO=2,FIFO_DEPTH=16,BATCH_COUNT=4,BATCH_TIMEOUT=64,SINK_STALL_EN=1'b1,SINK_STALL_PERIOD=4,SINK_STALL_READY=1)/dut/u_fifo/Always163_9  Scope: \tb_pcie_axi_dma(TB_SCENARIO=2,FIFO_DEPTH=16,BATCH_COUNT=4,BATCH_TIMEOUT=64,SINK_STALL_EN=1'b1,SINK_STALL_PERIOD=4,SINK_STALL_READY=1) .dut.u_fifo  File: /get/work/krishna.vardhan/git_trees/mtp_pcie_axi/pcie_axi_dma_latency/design/rtl/axis_fifo.sv Line: 165
Warning: [axis_fifo] FIFO full (depth=16) — upstream back-pressured at t=9535000
Time: 9535 ns  Iteration: 0  Process: /tb_pcie_axi_dma(TB_SCENARIO=2,FIFO_DEPTH=16,BATCH_COUNT=4,BATCH_TIMEOUT=64,SINK_STALL_EN=1'b1,SINK_STALL_PERIOD=4,SINK_STALL_READY=1)/dut/u_fifo/Always163_9  Scope: \tb_pcie_axi_dma(TB_SCENARIO=2,FIFO_DEPTH=16,BATCH_COUNT=4,BATCH_TIMEOUT=64,SINK_STALL_EN=1'b1,SINK_STALL_PERIOD=4,SINK_STALL_READY=1) .dut.u_fifo  File: /get/work/krishna.vardhan/git_trees/mtp_pcie_axi/pcie_axi_dma_latency/design/rtl/axis_fifo.sv Line: 165
Warning: [axis_fifo] FIFO full (depth=16) — upstream back-pressured at t=9555000
Time: 9555 ns  Iteration: 0  Process: /tb_pcie_axi_dma(TB_SCENARIO=2,FIFO_DEPTH=16,BATCH_COUNT=4,BATCH_TIMEOUT=64,SINK_STALL_EN=1'b1,SINK_STALL_PERIOD=4,SINK_STALL_READY=1)/dut/u_fifo/Always163_9  Scope: \tb_pcie_axi_dma(TB_SCENARIO=2,FIFO_DEPTH=16,BATCH_COUNT=4,BATCH_TIMEOUT=64,SINK_STALL_EN=1'b1,SINK_STALL_PERIOD=4,SINK_STALL_READY=1) .dut.u_fifo  File: /get/work/krishna.vardhan/git_trees/mtp_pcie_axi/pcie_axi_dma_latency/design/rtl/axis_fifo.sv Line: 165
Warning: [axis_fifo] FIFO full (depth=16) — upstream back-pressured at t=9565000
Time: 9565 ns  Iteration: 0  Process: /tb_pcie_axi_dma(TB_SCENARIO=2,FIFO_DEPTH=16,BATCH_COUNT=4,BATCH_TIMEOUT=64,SINK_STALL_EN=1'b1,SINK_STALL_PERIOD=4,SINK_STALL_READY=1)/dut/u_fifo/Always163_9  Scope: \tb_pcie_axi_dma(TB_SCENARIO=2,FIFO_DEPTH=16,BATCH_COUNT=4,BATCH_TIMEOUT=64,SINK_STALL_EN=1'b1,SINK_STALL_PERIOD=4,SINK_STALL_READY=1) .dut.u_fifo  File: /get/work/krishna.vardhan/git_trees/mtp_pcie_axi/pcie_axi_dma_latency/design/rtl/axis_fifo.sv Line: 165
Warning: [axis_fifo] FIFO full (depth=16) — upstream back-pressured at t=9575000
Time: 9575 ns  Iteration: 0  Process: /tb_pcie_axi_dma(TB_SCENARIO=2,FIFO_DEPTH=16,BATCH_COUNT=4,BATCH_TIMEOUT=64,SINK_STALL_EN=1'b1,SINK_STALL_PERIOD=4,SINK_STALL_READY=1)/dut/u_fifo/Always163_9  Scope: \tb_pcie_axi_dma(TB_SCENARIO=2,FIFO_DEPTH=16,BATCH_COUNT=4,BATCH_TIMEOUT=64,SINK_STALL_EN=1'b1,SINK_STALL_PERIOD=4,SINK_STALL_READY=1) .dut.u_fifo  File: /get/work/krishna.vardhan/git_trees/mtp_pcie_axi/pcie_axi_dma_latency/design/rtl/axis_fifo.sv Line: 165
Warning: [axis_fifo] FIFO full (depth=16) — upstream back-pressured at t=9595000
Time: 9595 ns  Iteration: 0  Process: /tb_pcie_axi_dma(TB_SCENARIO=2,FIFO_DEPTH=16,BATCH_COUNT=4,BATCH_TIMEOUT=64,SINK_STALL_EN=1'b1,SINK_STALL_PERIOD=4,SINK_STALL_READY=1)/dut/u_fifo/Always163_9  Scope: \tb_pcie_axi_dma(TB_SCENARIO=2,FIFO_DEPTH=16,BATCH_COUNT=4,BATCH_TIMEOUT=64,SINK_STALL_EN=1'b1,SINK_STALL_PERIOD=4,SINK_STALL_READY=1) .dut.u_fifo  File: /get/work/krishna.vardhan/git_trees/mtp_pcie_axi/pcie_axi_dma_latency/design/rtl/axis_fifo.sv Line: 165
Warning: [axis_fifo] FIFO full (depth=16) — upstream back-pressured at t=9605000
Time: 9605 ns  Iteration: 0  Process: /tb_pcie_axi_dma(TB_SCENARIO=2,FIFO_DEPTH=16,BATCH_COUNT=4,BATCH_TIMEOUT=64,SINK_STALL_EN=1'b1,SINK_STALL_PERIOD=4,SINK_STALL_READY=1)/dut/u_fifo/Always163_9  Scope: \tb_pcie_axi_dma(TB_SCENARIO=2,FIFO_DEPTH=16,BATCH_COUNT=4,BATCH_TIMEOUT=64,SINK_STALL_EN=1'b1,SINK_STALL_PERIOD=4,SINK_STALL_READY=1) .dut.u_fifo  File: /get/work/krishna.vardhan/git_trees/mtp_pcie_axi/pcie_axi_dma_latency/design/rtl/axis_fifo.sv Line: 165
Warning: [axis_fifo] FIFO full (depth=16) — upstream back-pressured at t=9615000
Time: 9615 ns  Iteration: 0  Process: /tb_pcie_axi_dma(TB_SCENARIO=2,FIFO_DEPTH=16,BATCH_COUNT=4,BATCH_TIMEOUT=64,SINK_STALL_EN=1'b1,SINK_STALL_PERIOD=4,SINK_STALL_READY=1)/dut/u_fifo/Always163_9  Scope: \tb_pcie_axi_dma(TB_SCENARIO=2,FIFO_DEPTH=16,BATCH_COUNT=4,BATCH_TIMEOUT=64,SINK_STALL_EN=1'b1,SINK_STALL_PERIOD=4,SINK_STALL_READY=1) .dut.u_fifo  File: /get/work/krishna.vardhan/git_trees/mtp_pcie_axi/pcie_axi_dma_latency/design/rtl/axis_fifo.sv Line: 165
Warning: [axis_fifo] FIFO full (depth=16) — upstream back-pressured at t=9635000
Time: 9635 ns  Iteration: 0  Process: /tb_pcie_axi_dma(TB_SCENARIO=2,FIFO_DEPTH=16,BATCH_COUNT=4,BATCH_TIMEOUT=64,SINK_STALL_EN=1'b1,SINK_STALL_PERIOD=4,SINK_STALL_READY=1)/dut/u_fifo/Always163_9  Scope: \tb_pcie_axi_dma(TB_SCENARIO=2,FIFO_DEPTH=16,BATCH_COUNT=4,BATCH_TIMEOUT=64,SINK_STALL_EN=1'b1,SINK_STALL_PERIOD=4,SINK_STALL_READY=1) .dut.u_fifo  File: /get/work/krishna.vardhan/git_trees/mtp_pcie_axi/pcie_axi_dma_latency/design/rtl/axis_fifo.sv Line: 165
Warning: [axis_fifo] FIFO full (depth=16) — upstream back-pressured at t=9645000
Time: 9645 ns  Iteration: 0  Process: /tb_pcie_axi_dma(TB_SCENARIO=2,FIFO_DEPTH=16,BATCH_COUNT=4,BATCH_TIMEOUT=64,SINK_STALL_EN=1'b1,SINK_STALL_PERIOD=4,SINK_STALL_READY=1)/dut/u_fifo/Always163_9  Scope: \tb_pcie_axi_dma(TB_SCENARIO=2,FIFO_DEPTH=16,BATCH_COUNT=4,BATCH_TIMEOUT=64,SINK_STALL_EN=1'b1,SINK_STALL_PERIOD=4,SINK_STALL_READY=1) .dut.u_fifo  File: /get/work/krishna.vardhan/git_trees/mtp_pcie_axi/pcie_axi_dma_latency/design/rtl/axis_fifo.sv Line: 165
Warning: [axis_fifo] FIFO full (depth=16) — upstream back-pressured at t=9655000
Time: 9655 ns  Iteration: 0  Process: /tb_pcie_axi_dma(TB_SCENARIO=2,FIFO_DEPTH=16,BATCH_COUNT=4,BATCH_TIMEOUT=64,SINK_STALL_EN=1'b1,SINK_STALL_PERIOD=4,SINK_STALL_READY=1)/dut/u_fifo/Always163_9  Scope: \tb_pcie_axi_dma(TB_SCENARIO=2,FIFO_DEPTH=16,BATCH_COUNT=4,BATCH_TIMEOUT=64,SINK_STALL_EN=1'b1,SINK_STALL_PERIOD=4,SINK_STALL_READY=1) .dut.u_fifo  File: /get/work/krishna.vardhan/git_trees/mtp_pcie_axi/pcie_axi_dma_latency/design/rtl/axis_fifo.sv Line: 165
Warning: [axis_fifo] FIFO full (depth=16) — upstream back-pressured at t=9675000
Time: 9675 ns  Iteration: 0  Process: /tb_pcie_axi_dma(TB_SCENARIO=2,FIFO_DEPTH=16,BATCH_COUNT=4,BATCH_TIMEOUT=64,SINK_STALL_EN=1'b1,SINK_STALL_PERIOD=4,SINK_STALL_READY=1)/dut/u_fifo/Always163_9  Scope: \tb_pcie_axi_dma(TB_SCENARIO=2,FIFO_DEPTH=16,BATCH_COUNT=4,BATCH_TIMEOUT=64,SINK_STALL_EN=1'b1,SINK_STALL_PERIOD=4,SINK_STALL_READY=1) .dut.u_fifo  File: /get/work/krishna.vardhan/git_trees/mtp_pcie_axi/pcie_axi_dma_latency/design/rtl/axis_fifo.sv Line: 165
Warning: [axis_fifo] FIFO full (depth=16) — upstream back-pressured at t=9685000
Time: 9685 ns  Iteration: 0  Process: /tb_pcie_axi_dma(TB_SCENARIO=2,FIFO_DEPTH=16,BATCH_COUNT=4,BATCH_TIMEOUT=64,SINK_STALL_EN=1'b1,SINK_STALL_PERIOD=4,SINK_STALL_READY=1)/dut/u_fifo/Always163_9  Scope: \tb_pcie_axi_dma(TB_SCENARIO=2,FIFO_DEPTH=16,BATCH_COUNT=4,BATCH_TIMEOUT=64,SINK_STALL_EN=1'b1,SINK_STALL_PERIOD=4,SINK_STALL_READY=1) .dut.u_fifo  File: /get/work/krishna.vardhan/git_trees/mtp_pcie_axi/pcie_axi_dma_latency/design/rtl/axis_fifo.sv Line: 165
Warning: [axis_fifo] FIFO full (depth=16) — upstream back-pressured at t=9695000
Time: 9695 ns  Iteration: 0  Process: /tb_pcie_axi_dma(TB_SCENARIO=2,FIFO_DEPTH=16,BATCH_COUNT=4,BATCH_TIMEOUT=64,SINK_STALL_EN=1'b1,SINK_STALL_PERIOD=4,SINK_STALL_READY=1)/dut/u_fifo/Always163_9  Scope: \tb_pcie_axi_dma(TB_SCENARIO=2,FIFO_DEPTH=16,BATCH_COUNT=4,BATCH_TIMEOUT=64,SINK_STALL_EN=1'b1,SINK_STALL_PERIOD=4,SINK_STALL_READY=1) .dut.u_fifo  File: /get/work/krishna.vardhan/git_trees/mtp_pcie_axi/pcie_axi_dma_latency/design/rtl/axis_fifo.sv Line: 165
Warning: [axis_fifo] FIFO full (depth=16) — upstream back-pressured at t=9715000
Time: 9715 ns  Iteration: 0  Process: /tb_pcie_axi_dma(TB_SCENARIO=2,FIFO_DEPTH=16,BATCH_COUNT=4,BATCH_TIMEOUT=64,SINK_STALL_EN=1'b1,SINK_STALL_PERIOD=4,SINK_STALL_READY=1)/dut/u_fifo/Always163_9  Scope: \tb_pcie_axi_dma(TB_SCENARIO=2,FIFO_DEPTH=16,BATCH_COUNT=4,BATCH_TIMEOUT=64,SINK_STALL_EN=1'b1,SINK_STALL_PERIOD=4,SINK_STALL_READY=1) .dut.u_fifo  File: /get/work/krishna.vardhan/git_trees/mtp_pcie_axi/pcie_axi_dma_latency/design/rtl/axis_fifo.sv Line: 165
Warning: [axis_fifo] FIFO full (depth=16) — upstream back-pressured at t=9725000
Time: 9725 ns  Iteration: 0  Process: /tb_pcie_axi_dma(TB_SCENARIO=2,FIFO_DEPTH=16,BATCH_COUNT=4,BATCH_TIMEOUT=64,SINK_STALL_EN=1'b1,SINK_STALL_PERIOD=4,SINK_STALL_READY=1)/dut/u_fifo/Always163_9  Scope: \tb_pcie_axi_dma(TB_SCENARIO=2,FIFO_DEPTH=16,BATCH_COUNT=4,BATCH_TIMEOUT=64,SINK_STALL_EN=1'b1,SINK_STALL_PERIOD=4,SINK_STALL_READY=1) .dut.u_fifo  File: /get/work/krishna.vardhan/git_trees/mtp_pcie_axi/pcie_axi_dma_latency/design/rtl/axis_fifo.sv Line: 165
Warning: [axis_fifo] FIFO full (depth=16) — upstream back-pressured at t=9735000
Time: 9735 ns  Iteration: 0  Process: /tb_pcie_axi_dma(TB_SCENARIO=2,FIFO_DEPTH=16,BATCH_COUNT=4,BATCH_TIMEOUT=64,SINK_STALL_EN=1'b1,SINK_STALL_PERIOD=4,SINK_STALL_READY=1)/dut/u_fifo/Always163_9  Scope: \tb_pcie_axi_dma(TB_SCENARIO=2,FIFO_DEPTH=16,BATCH_COUNT=4,BATCH_TIMEOUT=64,SINK_STALL_EN=1'b1,SINK_STALL_PERIOD=4,SINK_STALL_READY=1) .dut.u_fifo  File: /get/work/krishna.vardhan/git_trees/mtp_pcie_axi/pcie_axi_dma_latency/design/rtl/axis_fifo.sv Line: 165
Warning: [axis_fifo] FIFO full (depth=16) — upstream back-pressured at t=9755000
Time: 9755 ns  Iteration: 0  Process: /tb_pcie_axi_dma(TB_SCENARIO=2,FIFO_DEPTH=16,BATCH_COUNT=4,BATCH_TIMEOUT=64,SINK_STALL_EN=1'b1,SINK_STALL_PERIOD=4,SINK_STALL_READY=1)/dut/u_fifo/Always163_9  Scope: \tb_pcie_axi_dma(TB_SCENARIO=2,FIFO_DEPTH=16,BATCH_COUNT=4,BATCH_TIMEOUT=64,SINK_STALL_EN=1'b1,SINK_STALL_PERIOD=4,SINK_STALL_READY=1) .dut.u_fifo  File: /get/work/krishna.vardhan/git_trees/mtp_pcie_axi/pcie_axi_dma_latency/design/rtl/axis_fifo.sv Line: 165
Warning: [axis_fifo] FIFO full (depth=16) — upstream back-pressured at t=9765000
Time: 9765 ns  Iteration: 0  Process: /tb_pcie_axi_dma(TB_SCENARIO=2,FIFO_DEPTH=16,BATCH_COUNT=4,BATCH_TIMEOUT=64,SINK_STALL_EN=1'b1,SINK_STALL_PERIOD=4,SINK_STALL_READY=1)/dut/u_fifo/Always163_9  Scope: \tb_pcie_axi_dma(TB_SCENARIO=2,FIFO_DEPTH=16,BATCH_COUNT=4,BATCH_TIMEOUT=64,SINK_STALL_EN=1'b1,SINK_STALL_PERIOD=4,SINK_STALL_READY=1) .dut.u_fifo  File: /get/work/krishna.vardhan/git_trees/mtp_pcie_axi/pcie_axi_dma_latency/design/rtl/axis_fifo.sv Line: 165
Warning: [axis_fifo] FIFO full (depth=16) — upstream back-pressured at t=9775000
Time: 9775 ns  Iteration: 0  Process: /tb_pcie_axi_dma(TB_SCENARIO=2,FIFO_DEPTH=16,BATCH_COUNT=4,BATCH_TIMEOUT=64,SINK_STALL_EN=1'b1,SINK_STALL_PERIOD=4,SINK_STALL_READY=1)/dut/u_fifo/Always163_9  Scope: \tb_pcie_axi_dma(TB_SCENARIO=2,FIFO_DEPTH=16,BATCH_COUNT=4,BATCH_TIMEOUT=64,SINK_STALL_EN=1'b1,SINK_STALL_PERIOD=4,SINK_STALL_READY=1) .dut.u_fifo  File: /get/work/krishna.vardhan/git_trees/mtp_pcie_axi/pcie_axi_dma_latency/design/rtl/axis_fifo.sv Line: 165
Warning: [axis_fifo] FIFO full (depth=16) — upstream back-pressured at t=9795000
Time: 9795 ns  Iteration: 0  Process: /tb_pcie_axi_dma(TB_SCENARIO=2,FIFO_DEPTH=16,BATCH_COUNT=4,BATCH_TIMEOUT=64,SINK_STALL_EN=1'b1,SINK_STALL_PERIOD=4,SINK_STALL_READY=1)/dut/u_fifo/Always163_9  Scope: \tb_pcie_axi_dma(TB_SCENARIO=2,FIFO_DEPTH=16,BATCH_COUNT=4,BATCH_TIMEOUT=64,SINK_STALL_EN=1'b1,SINK_STALL_PERIOD=4,SINK_STALL_READY=1) .dut.u_fifo  File: /get/work/krishna.vardhan/git_trees/mtp_pcie_axi/pcie_axi_dma_latency/design/rtl/axis_fifo.sv Line: 165
Warning: [axis_fifo] FIFO full (depth=16) — upstream back-pressured at t=9805000
Time: 9805 ns  Iteration: 0  Process: /tb_pcie_axi_dma(TB_SCENARIO=2,FIFO_DEPTH=16,BATCH_COUNT=4,BATCH_TIMEOUT=64,SINK_STALL_EN=1'b1,SINK_STALL_PERIOD=4,SINK_STALL_READY=1)/dut/u_fifo/Always163_9  Scope: \tb_pcie_axi_dma(TB_SCENARIO=2,FIFO_DEPTH=16,BATCH_COUNT=4,BATCH_TIMEOUT=64,SINK_STALL_EN=1'b1,SINK_STALL_PERIOD=4,SINK_STALL_READY=1) .dut.u_fifo  File: /get/work/krishna.vardhan/git_trees/mtp_pcie_axi/pcie_axi_dma_latency/design/rtl/axis_fifo.sv Line: 165
Warning: [axis_fifo] FIFO full (depth=16) — upstream back-pressured at t=9815000
Time: 9815 ns  Iteration: 0  Process: /tb_pcie_axi_dma(TB_SCENARIO=2,FIFO_DEPTH=16,BATCH_COUNT=4,BATCH_TIMEOUT=64,SINK_STALL_EN=1'b1,SINK_STALL_PERIOD=4,SINK_STALL_READY=1)/dut/u_fifo/Always163_9  Scope: \tb_pcie_axi_dma(TB_SCENARIO=2,FIFO_DEPTH=16,BATCH_COUNT=4,BATCH_TIMEOUT=64,SINK_STALL_EN=1'b1,SINK_STALL_PERIOD=4,SINK_STALL_READY=1) .dut.u_fifo  File: /get/work/krishna.vardhan/git_trees/mtp_pcie_axi/pcie_axi_dma_latency/design/rtl/axis_fifo.sv Line: 165
Warning: [axis_fifo] FIFO full (depth=16) — upstream back-pressured at t=9835000
Time: 9835 ns  Iteration: 0  Process: /tb_pcie_axi_dma(TB_SCENARIO=2,FIFO_DEPTH=16,BATCH_COUNT=4,BATCH_TIMEOUT=64,SINK_STALL_EN=1'b1,SINK_STALL_PERIOD=4,SINK_STALL_READY=1)/dut/u_fifo/Always163_9  Scope: \tb_pcie_axi_dma(TB_SCENARIO=2,FIFO_DEPTH=16,BATCH_COUNT=4,BATCH_TIMEOUT=64,SINK_STALL_EN=1'b1,SINK_STALL_PERIOD=4,SINK_STALL_READY=1) .dut.u_fifo  File: /get/work/krishna.vardhan/git_trees/mtp_pcie_axi/pcie_axi_dma_latency/design/rtl/axis_fifo.sv Line: 165
Warning: [axis_fifo] FIFO full (depth=16) — upstream back-pressured at t=9845000
Time: 9845 ns  Iteration: 0  Process: /tb_pcie_axi_dma(TB_SCENARIO=2,FIFO_DEPTH=16,BATCH_COUNT=4,BATCH_TIMEOUT=64,SINK_STALL_EN=1'b1,SINK_STALL_PERIOD=4,SINK_STALL_READY=1)/dut/u_fifo/Always163_9  Scope: \tb_pcie_axi_dma(TB_SCENARIO=2,FIFO_DEPTH=16,BATCH_COUNT=4,BATCH_TIMEOUT=64,SINK_STALL_EN=1'b1,SINK_STALL_PERIOD=4,SINK_STALL_READY=1) .dut.u_fifo  File: /get/work/krishna.vardhan/git_trees/mtp_pcie_axi/pcie_axi_dma_latency/design/rtl/axis_fifo.sv Line: 165
Warning: [axis_fifo] FIFO full (depth=16) — upstream back-pressured at t=9855000
Time: 9855 ns  Iteration: 0  Process: /tb_pcie_axi_dma(TB_SCENARIO=2,FIFO_DEPTH=16,BATCH_COUNT=4,BATCH_TIMEOUT=64,SINK_STALL_EN=1'b1,SINK_STALL_PERIOD=4,SINK_STALL_READY=1)/dut/u_fifo/Always163_9  Scope: \tb_pcie_axi_dma(TB_SCENARIO=2,FIFO_DEPTH=16,BATCH_COUNT=4,BATCH_TIMEOUT=64,SINK_STALL_EN=1'b1,SINK_STALL_PERIOD=4,SINK_STALL_READY=1) .dut.u_fifo  File: /get/work/krishna.vardhan/git_trees/mtp_pcie_axi/pcie_axi_dma_latency/design/rtl/axis_fifo.sv Line: 165
Warning: [axis_fifo] FIFO full (depth=16) — upstream back-pressured at t=9875000
Time: 9875 ns  Iteration: 0  Process: /tb_pcie_axi_dma(TB_SCENARIO=2,FIFO_DEPTH=16,BATCH_COUNT=4,BATCH_TIMEOUT=64,SINK_STALL_EN=1'b1,SINK_STALL_PERIOD=4,SINK_STALL_READY=1)/dut/u_fifo/Always163_9  Scope: \tb_pcie_axi_dma(TB_SCENARIO=2,FIFO_DEPTH=16,BATCH_COUNT=4,BATCH_TIMEOUT=64,SINK_STALL_EN=1'b1,SINK_STALL_PERIOD=4,SINK_STALL_READY=1) .dut.u_fifo  File: /get/work/krishna.vardhan/git_trees/mtp_pcie_axi/pcie_axi_dma_latency/design/rtl/axis_fifo.sv Line: 165
Warning: [axis_fifo] FIFO full (depth=16) — upstream back-pressured at t=9885000
Time: 9885 ns  Iteration: 0  Process: /tb_pcie_axi_dma(TB_SCENARIO=2,FIFO_DEPTH=16,BATCH_COUNT=4,BATCH_TIMEOUT=64,SINK_STALL_EN=1'b1,SINK_STALL_PERIOD=4,SINK_STALL_READY=1)/dut/u_fifo/Always163_9  Scope: \tb_pcie_axi_dma(TB_SCENARIO=2,FIFO_DEPTH=16,BATCH_COUNT=4,BATCH_TIMEOUT=64,SINK_STALL_EN=1'b1,SINK_STALL_PERIOD=4,SINK_STALL_READY=1) .dut.u_fifo  File: /get/work/krishna.vardhan/git_trees/mtp_pcie_axi/pcie_axi_dma_latency/design/rtl/axis_fifo.sv Line: 165
Warning: [axis_fifo] FIFO full (depth=16) — upstream back-pressured at t=9895000
Time: 9895 ns  Iteration: 0  Process: /tb_pcie_axi_dma(TB_SCENARIO=2,FIFO_DEPTH=16,BATCH_COUNT=4,BATCH_TIMEOUT=64,SINK_STALL_EN=1'b1,SINK_STALL_PERIOD=4,SINK_STALL_READY=1)/dut/u_fifo/Always163_9  Scope: \tb_pcie_axi_dma(TB_SCENARIO=2,FIFO_DEPTH=16,BATCH_COUNT=4,BATCH_TIMEOUT=64,SINK_STALL_EN=1'b1,SINK_STALL_PERIOD=4,SINK_STALL_READY=1) .dut.u_fifo  File: /get/work/krishna.vardhan/git_trees/mtp_pcie_axi/pcie_axi_dma_latency/design/rtl/axis_fifo.sv Line: 165
Warning: [axis_fifo] FIFO full (depth=16) — upstream back-pressured at t=9915000
Time: 9915 ns  Iteration: 0  Process: /tb_pcie_axi_dma(TB_SCENARIO=2,FIFO_DEPTH=16,BATCH_COUNT=4,BATCH_TIMEOUT=64,SINK_STALL_EN=1'b1,SINK_STALL_PERIOD=4,SINK_STALL_READY=1)/dut/u_fifo/Always163_9  Scope: \tb_pcie_axi_dma(TB_SCENARIO=2,FIFO_DEPTH=16,BATCH_COUNT=4,BATCH_TIMEOUT=64,SINK_STALL_EN=1'b1,SINK_STALL_PERIOD=4,SINK_STALL_READY=1) .dut.u_fifo  File: /get/work/krishna.vardhan/git_trees/mtp_pcie_axi/pcie_axi_dma_latency/design/rtl/axis_fifo.sv Line: 165
Warning: [axis_fifo] FIFO full (depth=16) — upstream back-pressured at t=9925000
Time: 9925 ns  Iteration: 0  Process: /tb_pcie_axi_dma(TB_SCENARIO=2,FIFO_DEPTH=16,BATCH_COUNT=4,BATCH_TIMEOUT=64,SINK_STALL_EN=1'b1,SINK_STALL_PERIOD=4,SINK_STALL_READY=1)/dut/u_fifo/Always163_9  Scope: \tb_pcie_axi_dma(TB_SCENARIO=2,FIFO_DEPTH=16,BATCH_COUNT=4,BATCH_TIMEOUT=64,SINK_STALL_EN=1'b1,SINK_STALL_PERIOD=4,SINK_STALL_READY=1) .dut.u_fifo  File: /get/work/krishna.vardhan/git_trees/mtp_pcie_axi/pcie_axi_dma_latency/design/rtl/axis_fifo.sv Line: 165
Warning: [axis_fifo] FIFO full (depth=16) — upstream back-pressured at t=9935000
Time: 9935 ns  Iteration: 0  Process: /tb_pcie_axi_dma(TB_SCENARIO=2,FIFO_DEPTH=16,BATCH_COUNT=4,BATCH_TIMEOUT=64,SINK_STALL_EN=1'b1,SINK_STALL_PERIOD=4,SINK_STALL_READY=1)/dut/u_fifo/Always163_9  Scope: \tb_pcie_axi_dma(TB_SCENARIO=2,FIFO_DEPTH=16,BATCH_COUNT=4,BATCH_TIMEOUT=64,SINK_STALL_EN=1'b1,SINK_STALL_PERIOD=4,SINK_STALL_READY=1) .dut.u_fifo  File: /get/work/krishna.vardhan/git_trees/mtp_pcie_axi/pcie_axi_dma_latency/design/rtl/axis_fifo.sv Line: 165
Warning: [axis_fifo] FIFO full (depth=16) — upstream back-pressured at t=9955000
Time: 9955 ns  Iteration: 0  Process: /tb_pcie_axi_dma(TB_SCENARIO=2,FIFO_DEPTH=16,BATCH_COUNT=4,BATCH_TIMEOUT=64,SINK_STALL_EN=1'b1,SINK_STALL_PERIOD=4,SINK_STALL_READY=1)/dut/u_fifo/Always163_9  Scope: \tb_pcie_axi_dma(TB_SCENARIO=2,FIFO_DEPTH=16,BATCH_COUNT=4,BATCH_TIMEOUT=64,SINK_STALL_EN=1'b1,SINK_STALL_PERIOD=4,SINK_STALL_READY=1) .dut.u_fifo  File: /get/work/krishna.vardhan/git_trees/mtp_pcie_axi/pcie_axi_dma_latency/design/rtl/axis_fifo.sv Line: 165
Warning: [axis_fifo] FIFO full (depth=16) — upstream back-pressured at t=9965000
Time: 9965 ns  Iteration: 0  Process: /tb_pcie_axi_dma(TB_SCENARIO=2,FIFO_DEPTH=16,BATCH_COUNT=4,BATCH_TIMEOUT=64,SINK_STALL_EN=1'b1,SINK_STALL_PERIOD=4,SINK_STALL_READY=1)/dut/u_fifo/Always163_9  Scope: \tb_pcie_axi_dma(TB_SCENARIO=2,FIFO_DEPTH=16,BATCH_COUNT=4,BATCH_TIMEOUT=64,SINK_STALL_EN=1'b1,SINK_STALL_PERIOD=4,SINK_STALL_READY=1) .dut.u_fifo  File: /get/work/krishna.vardhan/git_trees/mtp_pcie_axi/pcie_axi_dma_latency/design/rtl/axis_fifo.sv Line: 165
Warning: [axis_fifo] FIFO full (depth=16) — upstream back-pressured at t=9975000
Time: 9975 ns  Iteration: 0  Process: /tb_pcie_axi_dma(TB_SCENARIO=2,FIFO_DEPTH=16,BATCH_COUNT=4,BATCH_TIMEOUT=64,SINK_STALL_EN=1'b1,SINK_STALL_PERIOD=4,SINK_STALL_READY=1)/dut/u_fifo/Always163_9  Scope: \tb_pcie_axi_dma(TB_SCENARIO=2,FIFO_DEPTH=16,BATCH_COUNT=4,BATCH_TIMEOUT=64,SINK_STALL_EN=1'b1,SINK_STALL_PERIOD=4,SINK_STALL_READY=1) .dut.u_fifo  File: /get/work/krishna.vardhan/git_trees/mtp_pcie_axi/pcie_axi_dma_latency/design/rtl/axis_fifo.sv Line: 165
Warning: [axis_fifo] FIFO full (depth=16) — upstream back-pressured at t=9995000
Time: 9995 ns  Iteration: 0  Process: /tb_pcie_axi_dma(TB_SCENARIO=2,FIFO_DEPTH=16,BATCH_COUNT=4,BATCH_TIMEOUT=64,SINK_STALL_EN=1'b1,SINK_STALL_PERIOD=4,SINK_STALL_READY=1)/dut/u_fifo/Always163_9  Scope: \tb_pcie_axi_dma(TB_SCENARIO=2,FIFO_DEPTH=16,BATCH_COUNT=4,BATCH_TIMEOUT=64,SINK_STALL_EN=1'b1,SINK_STALL_PERIOD=4,SINK_STALL_READY=1) .dut.u_fifo  File: /get/work/krishna.vardhan/git_trees/mtp_pcie_axi/pcie_axi_dma_latency/design/rtl/axis_fifo.sv Line: 165
Warning: [axis_fifo] FIFO full (depth=16) — upstream back-pressured at t=10005000
Time: 10005 ns  Iteration: 0  Process: /tb_pcie_axi_dma(TB_SCENARIO=2,FIFO_DEPTH=16,BATCH_COUNT=4,BATCH_TIMEOUT=64,SINK_STALL_EN=1'b1,SINK_STALL_PERIOD=4,SINK_STALL_READY=1)/dut/u_fifo/Always163_9  Scope: \tb_pcie_axi_dma(TB_SCENARIO=2,FIFO_DEPTH=16,BATCH_COUNT=4,BATCH_TIMEOUT=64,SINK_STALL_EN=1'b1,SINK_STALL_PERIOD=4,SINK_STALL_READY=1) .dut.u_fifo  File: /get/work/krishna.vardhan/git_trees/mtp_pcie_axi/pcie_axi_dma_latency/design/rtl/axis_fifo.sv Line: 165
Warning: [axis_fifo] FIFO full (depth=16) — upstream back-pressured at t=10015000
Time: 10015 ns  Iteration: 0  Process: /tb_pcie_axi_dma(TB_SCENARIO=2,FIFO_DEPTH=16,BATCH_COUNT=4,BATCH_TIMEOUT=64,SINK_STALL_EN=1'b1,SINK_STALL_PERIOD=4,SINK_STALL_READY=1)/dut/u_fifo/Always163_9  Scope: \tb_pcie_axi_dma(TB_SCENARIO=2,FIFO_DEPTH=16,BATCH_COUNT=4,BATCH_TIMEOUT=64,SINK_STALL_EN=1'b1,SINK_STALL_PERIOD=4,SINK_STALL_READY=1) .dut.u_fifo  File: /get/work/krishna.vardhan/git_trees/mtp_pcie_axi/pcie_axi_dma_latency/design/rtl/axis_fifo.sv Line: 165
Warning: [axis_fifo] FIFO full (depth=16) — upstream back-pressured at t=10035000
Time: 10035 ns  Iteration: 0  Process: /tb_pcie_axi_dma(TB_SCENARIO=2,FIFO_DEPTH=16,BATCH_COUNT=4,BATCH_TIMEOUT=64,SINK_STALL_EN=1'b1,SINK_STALL_PERIOD=4,SINK_STALL_READY=1)/dut/u_fifo/Always163_9  Scope: \tb_pcie_axi_dma(TB_SCENARIO=2,FIFO_DEPTH=16,BATCH_COUNT=4,BATCH_TIMEOUT=64,SINK_STALL_EN=1'b1,SINK_STALL_PERIOD=4,SINK_STALL_READY=1) .dut.u_fifo  File: /get/work/krishna.vardhan/git_trees/mtp_pcie_axi/pcie_axi_dma_latency/design/rtl/axis_fifo.sv Line: 165
Warning: [axis_fifo] FIFO full (depth=16) — upstream back-pressured at t=10045000
Time: 10045 ns  Iteration: 0  Process: /tb_pcie_axi_dma(TB_SCENARIO=2,FIFO_DEPTH=16,BATCH_COUNT=4,BATCH_TIMEOUT=64,SINK_STALL_EN=1'b1,SINK_STALL_PERIOD=4,SINK_STALL_READY=1)/dut/u_fifo/Always163_9  Scope: \tb_pcie_axi_dma(TB_SCENARIO=2,FIFO_DEPTH=16,BATCH_COUNT=4,BATCH_TIMEOUT=64,SINK_STALL_EN=1'b1,SINK_STALL_PERIOD=4,SINK_STALL_READY=1) .dut.u_fifo  File: /get/work/krishna.vardhan/git_trees/mtp_pcie_axi/pcie_axi_dma_latency/design/rtl/axis_fifo.sv Line: 165
Warning: [axis_fifo] FIFO full (depth=16) — upstream back-pressured at t=10055000
Time: 10055 ns  Iteration: 0  Process: /tb_pcie_axi_dma(TB_SCENARIO=2,FIFO_DEPTH=16,BATCH_COUNT=4,BATCH_TIMEOUT=64,SINK_STALL_EN=1'b1,SINK_STALL_PERIOD=4,SINK_STALL_READY=1)/dut/u_fifo/Always163_9  Scope: \tb_pcie_axi_dma(TB_SCENARIO=2,FIFO_DEPTH=16,BATCH_COUNT=4,BATCH_TIMEOUT=64,SINK_STALL_EN=1'b1,SINK_STALL_PERIOD=4,SINK_STALL_READY=1) .dut.u_fifo  File: /get/work/krishna.vardhan/git_trees/mtp_pcie_axi/pcie_axi_dma_latency/design/rtl/axis_fifo.sv Line: 165
Warning: [axis_fifo] FIFO full (depth=16) — upstream back-pressured at t=10075000
Time: 10075 ns  Iteration: 0  Process: /tb_pcie_axi_dma(TB_SCENARIO=2,FIFO_DEPTH=16,BATCH_COUNT=4,BATCH_TIMEOUT=64,SINK_STALL_EN=1'b1,SINK_STALL_PERIOD=4,SINK_STALL_READY=1)/dut/u_fifo/Always163_9  Scope: \tb_pcie_axi_dma(TB_SCENARIO=2,FIFO_DEPTH=16,BATCH_COUNT=4,BATCH_TIMEOUT=64,SINK_STALL_EN=1'b1,SINK_STALL_PERIOD=4,SINK_STALL_READY=1) .dut.u_fifo  File: /get/work/krishna.vardhan/git_trees/mtp_pcie_axi/pcie_axi_dma_latency/design/rtl/axis_fifo.sv Line: 165
Warning: [axis_fifo] FIFO full (depth=16) — upstream back-pressured at t=10085000
Time: 10085 ns  Iteration: 0  Process: /tb_pcie_axi_dma(TB_SCENARIO=2,FIFO_DEPTH=16,BATCH_COUNT=4,BATCH_TIMEOUT=64,SINK_STALL_EN=1'b1,SINK_STALL_PERIOD=4,SINK_STALL_READY=1)/dut/u_fifo/Always163_9  Scope: \tb_pcie_axi_dma(TB_SCENARIO=2,FIFO_DEPTH=16,BATCH_COUNT=4,BATCH_TIMEOUT=64,SINK_STALL_EN=1'b1,SINK_STALL_PERIOD=4,SINK_STALL_READY=1) .dut.u_fifo  File: /get/work/krishna.vardhan/git_trees/mtp_pcie_axi/pcie_axi_dma_latency/design/rtl/axis_fifo.sv Line: 165
Warning: [axis_fifo] FIFO full (depth=16) — upstream back-pressured at t=10095000
Time: 10095 ns  Iteration: 0  Process: /tb_pcie_axi_dma(TB_SCENARIO=2,FIFO_DEPTH=16,BATCH_COUNT=4,BATCH_TIMEOUT=64,SINK_STALL_EN=1'b1,SINK_STALL_PERIOD=4,SINK_STALL_READY=1)/dut/u_fifo/Always163_9  Scope: \tb_pcie_axi_dma(TB_SCENARIO=2,FIFO_DEPTH=16,BATCH_COUNT=4,BATCH_TIMEOUT=64,SINK_STALL_EN=1'b1,SINK_STALL_PERIOD=4,SINK_STALL_READY=1) .dut.u_fifo  File: /get/work/krishna.vardhan/git_trees/mtp_pcie_axi/pcie_axi_dma_latency/design/rtl/axis_fifo.sv Line: 165
Warning: [axis_fifo] FIFO full (depth=16) — upstream back-pressured at t=10115000
Time: 10115 ns  Iteration: 0  Process: /tb_pcie_axi_dma(TB_SCENARIO=2,FIFO_DEPTH=16,BATCH_COUNT=4,BATCH_TIMEOUT=64,SINK_STALL_EN=1'b1,SINK_STALL_PERIOD=4,SINK_STALL_READY=1)/dut/u_fifo/Always163_9  Scope: \tb_pcie_axi_dma(TB_SCENARIO=2,FIFO_DEPTH=16,BATCH_COUNT=4,BATCH_TIMEOUT=64,SINK_STALL_EN=1'b1,SINK_STALL_PERIOD=4,SINK_STALL_READY=1) .dut.u_fifo  File: /get/work/krishna.vardhan/git_trees/mtp_pcie_axi/pcie_axi_dma_latency/design/rtl/axis_fifo.sv Line: 165
Warning: [axis_fifo] FIFO full (depth=16) — upstream back-pressured at t=10125000
Time: 10125 ns  Iteration: 0  Process: /tb_pcie_axi_dma(TB_SCENARIO=2,FIFO_DEPTH=16,BATCH_COUNT=4,BATCH_TIMEOUT=64,SINK_STALL_EN=1'b1,SINK_STALL_PERIOD=4,SINK_STALL_READY=1)/dut/u_fifo/Always163_9  Scope: \tb_pcie_axi_dma(TB_SCENARIO=2,FIFO_DEPTH=16,BATCH_COUNT=4,BATCH_TIMEOUT=64,SINK_STALL_EN=1'b1,SINK_STALL_PERIOD=4,SINK_STALL_READY=1) .dut.u_fifo  File: /get/work/krishna.vardhan/git_trees/mtp_pcie_axi/pcie_axi_dma_latency/design/rtl/axis_fifo.sv Line: 165
Warning: [axis_fifo] FIFO full (depth=16) — upstream back-pressured at t=10135000
Time: 10135 ns  Iteration: 0  Process: /tb_pcie_axi_dma(TB_SCENARIO=2,FIFO_DEPTH=16,BATCH_COUNT=4,BATCH_TIMEOUT=64,SINK_STALL_EN=1'b1,SINK_STALL_PERIOD=4,SINK_STALL_READY=1)/dut/u_fifo/Always163_9  Scope: \tb_pcie_axi_dma(TB_SCENARIO=2,FIFO_DEPTH=16,BATCH_COUNT=4,BATCH_TIMEOUT=64,SINK_STALL_EN=1'b1,SINK_STALL_PERIOD=4,SINK_STALL_READY=1) .dut.u_fifo  File: /get/work/krishna.vardhan/git_trees/mtp_pcie_axi/pcie_axi_dma_latency/design/rtl/axis_fifo.sv Line: 165
Warning: [axis_fifo] FIFO full (depth=16) — upstream back-pressured at t=10155000
Time: 10155 ns  Iteration: 0  Process: /tb_pcie_axi_dma(TB_SCENARIO=2,FIFO_DEPTH=16,BATCH_COUNT=4,BATCH_TIMEOUT=64,SINK_STALL_EN=1'b1,SINK_STALL_PERIOD=4,SINK_STALL_READY=1)/dut/u_fifo/Always163_9  Scope: \tb_pcie_axi_dma(TB_SCENARIO=2,FIFO_DEPTH=16,BATCH_COUNT=4,BATCH_TIMEOUT=64,SINK_STALL_EN=1'b1,SINK_STALL_PERIOD=4,SINK_STALL_READY=1) .dut.u_fifo  File: /get/work/krishna.vardhan/git_trees/mtp_pcie_axi/pcie_axi_dma_latency/design/rtl/axis_fifo.sv Line: 165
Warning: [axis_fifo] FIFO full (depth=16) — upstream back-pressured at t=10165000
Time: 10165 ns  Iteration: 0  Process: /tb_pcie_axi_dma(TB_SCENARIO=2,FIFO_DEPTH=16,BATCH_COUNT=4,BATCH_TIMEOUT=64,SINK_STALL_EN=1'b1,SINK_STALL_PERIOD=4,SINK_STALL_READY=1)/dut/u_fifo/Always163_9  Scope: \tb_pcie_axi_dma(TB_SCENARIO=2,FIFO_DEPTH=16,BATCH_COUNT=4,BATCH_TIMEOUT=64,SINK_STALL_EN=1'b1,SINK_STALL_PERIOD=4,SINK_STALL_READY=1) .dut.u_fifo  File: /get/work/krishna.vardhan/git_trees/mtp_pcie_axi/pcie_axi_dma_latency/design/rtl/axis_fifo.sv Line: 165
Warning: [axis_fifo] FIFO full (depth=16) — upstream back-pressured at t=10175000
Time: 10175 ns  Iteration: 0  Process: /tb_pcie_axi_dma(TB_SCENARIO=2,FIFO_DEPTH=16,BATCH_COUNT=4,BATCH_TIMEOUT=64,SINK_STALL_EN=1'b1,SINK_STALL_PERIOD=4,SINK_STALL_READY=1)/dut/u_fifo/Always163_9  Scope: \tb_pcie_axi_dma(TB_SCENARIO=2,FIFO_DEPTH=16,BATCH_COUNT=4,BATCH_TIMEOUT=64,SINK_STALL_EN=1'b1,SINK_STALL_PERIOD=4,SINK_STALL_READY=1) .dut.u_fifo  File: /get/work/krishna.vardhan/git_trees/mtp_pcie_axi/pcie_axi_dma_latency/design/rtl/axis_fifo.sv Line: 165
Warning: [axis_fifo] FIFO full (depth=16) — upstream back-pressured at t=10195000
Time: 10195 ns  Iteration: 0  Process: /tb_pcie_axi_dma(TB_SCENARIO=2,FIFO_DEPTH=16,BATCH_COUNT=4,BATCH_TIMEOUT=64,SINK_STALL_EN=1'b1,SINK_STALL_PERIOD=4,SINK_STALL_READY=1)/dut/u_fifo/Always163_9  Scope: \tb_pcie_axi_dma(TB_SCENARIO=2,FIFO_DEPTH=16,BATCH_COUNT=4,BATCH_TIMEOUT=64,SINK_STALL_EN=1'b1,SINK_STALL_PERIOD=4,SINK_STALL_READY=1) .dut.u_fifo  File: /get/work/krishna.vardhan/git_trees/mtp_pcie_axi/pcie_axi_dma_latency/design/rtl/axis_fifo.sv Line: 165
Warning: [axis_fifo] FIFO full (depth=16) — upstream back-pressured at t=10205000
Time: 10205 ns  Iteration: 0  Process: /tb_pcie_axi_dma(TB_SCENARIO=2,FIFO_DEPTH=16,BATCH_COUNT=4,BATCH_TIMEOUT=64,SINK_STALL_EN=1'b1,SINK_STALL_PERIOD=4,SINK_STALL_READY=1)/dut/u_fifo/Always163_9  Scope: \tb_pcie_axi_dma(TB_SCENARIO=2,FIFO_DEPTH=16,BATCH_COUNT=4,BATCH_TIMEOUT=64,SINK_STALL_EN=1'b1,SINK_STALL_PERIOD=4,SINK_STALL_READY=1) .dut.u_fifo  File: /get/work/krishna.vardhan/git_trees/mtp_pcie_axi/pcie_axi_dma_latency/design/rtl/axis_fifo.sv Line: 165
Warning: [axis_fifo] FIFO full (depth=16) — upstream back-pressured at t=10215000
Time: 10215 ns  Iteration: 0  Process: /tb_pcie_axi_dma(TB_SCENARIO=2,FIFO_DEPTH=16,BATCH_COUNT=4,BATCH_TIMEOUT=64,SINK_STALL_EN=1'b1,SINK_STALL_PERIOD=4,SINK_STALL_READY=1)/dut/u_fifo/Always163_9  Scope: \tb_pcie_axi_dma(TB_SCENARIO=2,FIFO_DEPTH=16,BATCH_COUNT=4,BATCH_TIMEOUT=64,SINK_STALL_EN=1'b1,SINK_STALL_PERIOD=4,SINK_STALL_READY=1) .dut.u_fifo  File: /get/work/krishna.vardhan/git_trees/mtp_pcie_axi/pcie_axi_dma_latency/design/rtl/axis_fifo.sv Line: 165
Warning: [axis_fifo] FIFO full (depth=16) — upstream back-pressured at t=10235000
Time: 10235 ns  Iteration: 0  Process: /tb_pcie_axi_dma(TB_SCENARIO=2,FIFO_DEPTH=16,BATCH_COUNT=4,BATCH_TIMEOUT=64,SINK_STALL_EN=1'b1,SINK_STALL_PERIOD=4,SINK_STALL_READY=1)/dut/u_fifo/Always163_9  Scope: \tb_pcie_axi_dma(TB_SCENARIO=2,FIFO_DEPTH=16,BATCH_COUNT=4,BATCH_TIMEOUT=64,SINK_STALL_EN=1'b1,SINK_STALL_PERIOD=4,SINK_STALL_READY=1) .dut.u_fifo  File: /get/work/krishna.vardhan/git_trees/mtp_pcie_axi/pcie_axi_dma_latency/design/rtl/axis_fifo.sv Line: 165
Warning: [axis_fifo] FIFO full (depth=16) — upstream back-pressured at t=10245000
Time: 10245 ns  Iteration: 0  Process: /tb_pcie_axi_dma(TB_SCENARIO=2,FIFO_DEPTH=16,BATCH_COUNT=4,BATCH_TIMEOUT=64,SINK_STALL_EN=1'b1,SINK_STALL_PERIOD=4,SINK_STALL_READY=1)/dut/u_fifo/Always163_9  Scope: \tb_pcie_axi_dma(TB_SCENARIO=2,FIFO_DEPTH=16,BATCH_COUNT=4,BATCH_TIMEOUT=64,SINK_STALL_EN=1'b1,SINK_STALL_PERIOD=4,SINK_STALL_READY=1) .dut.u_fifo  File: /get/work/krishna.vardhan/git_trees/mtp_pcie_axi/pcie_axi_dma_latency/design/rtl/axis_fifo.sv Line: 165
Warning: [axis_fifo] FIFO full (depth=16) — upstream back-pressured at t=10255000
Time: 10255 ns  Iteration: 0  Process: /tb_pcie_axi_dma(TB_SCENARIO=2,FIFO_DEPTH=16,BATCH_COUNT=4,BATCH_TIMEOUT=64,SINK_STALL_EN=1'b1,SINK_STALL_PERIOD=4,SINK_STALL_READY=1)/dut/u_fifo/Always163_9  Scope: \tb_pcie_axi_dma(TB_SCENARIO=2,FIFO_DEPTH=16,BATCH_COUNT=4,BATCH_TIMEOUT=64,SINK_STALL_EN=1'b1,SINK_STALL_PERIOD=4,SINK_STALL_READY=1) .dut.u_fifo  File: /get/work/krishna.vardhan/git_trees/mtp_pcie_axi/pcie_axi_dma_latency/design/rtl/axis_fifo.sv Line: 165
Warning: [axis_fifo] FIFO full (depth=16) — upstream back-pressured at t=10275000
Time: 10275 ns  Iteration: 0  Process: /tb_pcie_axi_dma(TB_SCENARIO=2,FIFO_DEPTH=16,BATCH_COUNT=4,BATCH_TIMEOUT=64,SINK_STALL_EN=1'b1,SINK_STALL_PERIOD=4,SINK_STALL_READY=1)/dut/u_fifo/Always163_9  Scope: \tb_pcie_axi_dma(TB_SCENARIO=2,FIFO_DEPTH=16,BATCH_COUNT=4,BATCH_TIMEOUT=64,SINK_STALL_EN=1'b1,SINK_STALL_PERIOD=4,SINK_STALL_READY=1) .dut.u_fifo  File: /get/work/krishna.vardhan/git_trees/mtp_pcie_axi/pcie_axi_dma_latency/design/rtl/axis_fifo.sv Line: 165
Warning: [axis_fifo] FIFO full (depth=16) — upstream back-pressured at t=10285000
Time: 10285 ns  Iteration: 0  Process: /tb_pcie_axi_dma(TB_SCENARIO=2,FIFO_DEPTH=16,BATCH_COUNT=4,BATCH_TIMEOUT=64,SINK_STALL_EN=1'b1,SINK_STALL_PERIOD=4,SINK_STALL_READY=1)/dut/u_fifo/Always163_9  Scope: \tb_pcie_axi_dma(TB_SCENARIO=2,FIFO_DEPTH=16,BATCH_COUNT=4,BATCH_TIMEOUT=64,SINK_STALL_EN=1'b1,SINK_STALL_PERIOD=4,SINK_STALL_READY=1) .dut.u_fifo  File: /get/work/krishna.vardhan/git_trees/mtp_pcie_axi/pcie_axi_dma_latency/design/rtl/axis_fifo.sv Line: 165
Warning: [axis_fifo] FIFO full (depth=16) — upstream back-pressured at t=10295000
Time: 10295 ns  Iteration: 0  Process: /tb_pcie_axi_dma(TB_SCENARIO=2,FIFO_DEPTH=16,BATCH_COUNT=4,BATCH_TIMEOUT=64,SINK_STALL_EN=1'b1,SINK_STALL_PERIOD=4,SINK_STALL_READY=1)/dut/u_fifo/Always163_9  Scope: \tb_pcie_axi_dma(TB_SCENARIO=2,FIFO_DEPTH=16,BATCH_COUNT=4,BATCH_TIMEOUT=64,SINK_STALL_EN=1'b1,SINK_STALL_PERIOD=4,SINK_STALL_READY=1) .dut.u_fifo  File: /get/work/krishna.vardhan/git_trees/mtp_pcie_axi/pcie_axi_dma_latency/design/rtl/axis_fifo.sv Line: 165
Warning: [axis_fifo] FIFO full (depth=16) — upstream back-pressured at t=10315000
Time: 10315 ns  Iteration: 0  Process: /tb_pcie_axi_dma(TB_SCENARIO=2,FIFO_DEPTH=16,BATCH_COUNT=4,BATCH_TIMEOUT=64,SINK_STALL_EN=1'b1,SINK_STALL_PERIOD=4,SINK_STALL_READY=1)/dut/u_fifo/Always163_9  Scope: \tb_pcie_axi_dma(TB_SCENARIO=2,FIFO_DEPTH=16,BATCH_COUNT=4,BATCH_TIMEOUT=64,SINK_STALL_EN=1'b1,SINK_STALL_PERIOD=4,SINK_STALL_READY=1) .dut.u_fifo  File: /get/work/krishna.vardhan/git_trees/mtp_pcie_axi/pcie_axi_dma_latency/design/rtl/axis_fifo.sv Line: 165
Warning: [axis_fifo] FIFO full (depth=16) — upstream back-pressured at t=10325000
Time: 10325 ns  Iteration: 0  Process: /tb_pcie_axi_dma(TB_SCENARIO=2,FIFO_DEPTH=16,BATCH_COUNT=4,BATCH_TIMEOUT=64,SINK_STALL_EN=1'b1,SINK_STALL_PERIOD=4,SINK_STALL_READY=1)/dut/u_fifo/Always163_9  Scope: \tb_pcie_axi_dma(TB_SCENARIO=2,FIFO_DEPTH=16,BATCH_COUNT=4,BATCH_TIMEOUT=64,SINK_STALL_EN=1'b1,SINK_STALL_PERIOD=4,SINK_STALL_READY=1) .dut.u_fifo  File: /get/work/krishna.vardhan/git_trees/mtp_pcie_axi/pcie_axi_dma_latency/design/rtl/axis_fifo.sv Line: 165
Warning: [axis_fifo] FIFO full (depth=16) — upstream back-pressured at t=10335000
Time: 10335 ns  Iteration: 0  Process: /tb_pcie_axi_dma(TB_SCENARIO=2,FIFO_DEPTH=16,BATCH_COUNT=4,BATCH_TIMEOUT=64,SINK_STALL_EN=1'b1,SINK_STALL_PERIOD=4,SINK_STALL_READY=1)/dut/u_fifo/Always163_9  Scope: \tb_pcie_axi_dma(TB_SCENARIO=2,FIFO_DEPTH=16,BATCH_COUNT=4,BATCH_TIMEOUT=64,SINK_STALL_EN=1'b1,SINK_STALL_PERIOD=4,SINK_STALL_READY=1) .dut.u_fifo  File: /get/work/krishna.vardhan/git_trees/mtp_pcie_axi/pcie_axi_dma_latency/design/rtl/axis_fifo.sv Line: 165
Warning: [axis_fifo] FIFO full (depth=16) — upstream back-pressured at t=10355000
Time: 10355 ns  Iteration: 0  Process: /tb_pcie_axi_dma(TB_SCENARIO=2,FIFO_DEPTH=16,BATCH_COUNT=4,BATCH_TIMEOUT=64,SINK_STALL_EN=1'b1,SINK_STALL_PERIOD=4,SINK_STALL_READY=1)/dut/u_fifo/Always163_9  Scope: \tb_pcie_axi_dma(TB_SCENARIO=2,FIFO_DEPTH=16,BATCH_COUNT=4,BATCH_TIMEOUT=64,SINK_STALL_EN=1'b1,SINK_STALL_PERIOD=4,SINK_STALL_READY=1) .dut.u_fifo  File: /get/work/krishna.vardhan/git_trees/mtp_pcie_axi/pcie_axi_dma_latency/design/rtl/axis_fifo.sv Line: 165
Warning: [axis_fifo] FIFO full (depth=16) — upstream back-pressured at t=10365000
Time: 10365 ns  Iteration: 0  Process: /tb_pcie_axi_dma(TB_SCENARIO=2,FIFO_DEPTH=16,BATCH_COUNT=4,BATCH_TIMEOUT=64,SINK_STALL_EN=1'b1,SINK_STALL_PERIOD=4,SINK_STALL_READY=1)/dut/u_fifo/Always163_9  Scope: \tb_pcie_axi_dma(TB_SCENARIO=2,FIFO_DEPTH=16,BATCH_COUNT=4,BATCH_TIMEOUT=64,SINK_STALL_EN=1'b1,SINK_STALL_PERIOD=4,SINK_STALL_READY=1) .dut.u_fifo  File: /get/work/krishna.vardhan/git_trees/mtp_pcie_axi/pcie_axi_dma_latency/design/rtl/axis_fifo.sv Line: 165
Warning: [axis_fifo] FIFO full (depth=16) — upstream back-pressured at t=10375000
Time: 10375 ns  Iteration: 0  Process: /tb_pcie_axi_dma(TB_SCENARIO=2,FIFO_DEPTH=16,BATCH_COUNT=4,BATCH_TIMEOUT=64,SINK_STALL_EN=1'b1,SINK_STALL_PERIOD=4,SINK_STALL_READY=1)/dut/u_fifo/Always163_9  Scope: \tb_pcie_axi_dma(TB_SCENARIO=2,FIFO_DEPTH=16,BATCH_COUNT=4,BATCH_TIMEOUT=64,SINK_STALL_EN=1'b1,SINK_STALL_PERIOD=4,SINK_STALL_READY=1) .dut.u_fifo  File: /get/work/krishna.vardhan/git_trees/mtp_pcie_axi/pcie_axi_dma_latency/design/rtl/axis_fifo.sv Line: 165
Warning: [axis_fifo] FIFO full (depth=16) — upstream back-pressured at t=10395000
Time: 10395 ns  Iteration: 0  Process: /tb_pcie_axi_dma(TB_SCENARIO=2,FIFO_DEPTH=16,BATCH_COUNT=4,BATCH_TIMEOUT=64,SINK_STALL_EN=1'b1,SINK_STALL_PERIOD=4,SINK_STALL_READY=1)/dut/u_fifo/Always163_9  Scope: \tb_pcie_axi_dma(TB_SCENARIO=2,FIFO_DEPTH=16,BATCH_COUNT=4,BATCH_TIMEOUT=64,SINK_STALL_EN=1'b1,SINK_STALL_PERIOD=4,SINK_STALL_READY=1) .dut.u_fifo  File: /get/work/krishna.vardhan/git_trees/mtp_pcie_axi/pcie_axi_dma_latency/design/rtl/axis_fifo.sv Line: 165
Warning: [axis_fifo] FIFO full (depth=16) — upstream back-pressured at t=10405000
Time: 10405 ns  Iteration: 0  Process: /tb_pcie_axi_dma(TB_SCENARIO=2,FIFO_DEPTH=16,BATCH_COUNT=4,BATCH_TIMEOUT=64,SINK_STALL_EN=1'b1,SINK_STALL_PERIOD=4,SINK_STALL_READY=1)/dut/u_fifo/Always163_9  Scope: \tb_pcie_axi_dma(TB_SCENARIO=2,FIFO_DEPTH=16,BATCH_COUNT=4,BATCH_TIMEOUT=64,SINK_STALL_EN=1'b1,SINK_STALL_PERIOD=4,SINK_STALL_READY=1) .dut.u_fifo  File: /get/work/krishna.vardhan/git_trees/mtp_pcie_axi/pcie_axi_dma_latency/design/rtl/axis_fifo.sv Line: 165
Warning: [axis_fifo] FIFO full (depth=16) — upstream back-pressured at t=10415000
Time: 10415 ns  Iteration: 0  Process: /tb_pcie_axi_dma(TB_SCENARIO=2,FIFO_DEPTH=16,BATCH_COUNT=4,BATCH_TIMEOUT=64,SINK_STALL_EN=1'b1,SINK_STALL_PERIOD=4,SINK_STALL_READY=1)/dut/u_fifo/Always163_9  Scope: \tb_pcie_axi_dma(TB_SCENARIO=2,FIFO_DEPTH=16,BATCH_COUNT=4,BATCH_TIMEOUT=64,SINK_STALL_EN=1'b1,SINK_STALL_PERIOD=4,SINK_STALL_READY=1) .dut.u_fifo  File: /get/work/krishna.vardhan/git_trees/mtp_pcie_axi/pcie_axi_dma_latency/design/rtl/axis_fifo.sv Line: 165
Warning: [axis_fifo] FIFO full (depth=16) — upstream back-pressured at t=10435000
Time: 10435 ns  Iteration: 0  Process: /tb_pcie_axi_dma(TB_SCENARIO=2,FIFO_DEPTH=16,BATCH_COUNT=4,BATCH_TIMEOUT=64,SINK_STALL_EN=1'b1,SINK_STALL_PERIOD=4,SINK_STALL_READY=1)/dut/u_fifo/Always163_9  Scope: \tb_pcie_axi_dma(TB_SCENARIO=2,FIFO_DEPTH=16,BATCH_COUNT=4,BATCH_TIMEOUT=64,SINK_STALL_EN=1'b1,SINK_STALL_PERIOD=4,SINK_STALL_READY=1) .dut.u_fifo  File: /get/work/krishna.vardhan/git_trees/mtp_pcie_axi/pcie_axi_dma_latency/design/rtl/axis_fifo.sv Line: 165
Warning: [axis_fifo] FIFO full (depth=16) — upstream back-pressured at t=10445000
Time: 10445 ns  Iteration: 0  Process: /tb_pcie_axi_dma(TB_SCENARIO=2,FIFO_DEPTH=16,BATCH_COUNT=4,BATCH_TIMEOUT=64,SINK_STALL_EN=1'b1,SINK_STALL_PERIOD=4,SINK_STALL_READY=1)/dut/u_fifo/Always163_9  Scope: \tb_pcie_axi_dma(TB_SCENARIO=2,FIFO_DEPTH=16,BATCH_COUNT=4,BATCH_TIMEOUT=64,SINK_STALL_EN=1'b1,SINK_STALL_PERIOD=4,SINK_STALL_READY=1) .dut.u_fifo  File: /get/work/krishna.vardhan/git_trees/mtp_pcie_axi/pcie_axi_dma_latency/design/rtl/axis_fifo.sv Line: 165
Warning: [axis_fifo] FIFO full (depth=16) — upstream back-pressured at t=10455000
Time: 10455 ns  Iteration: 0  Process: /tb_pcie_axi_dma(TB_SCENARIO=2,FIFO_DEPTH=16,BATCH_COUNT=4,BATCH_TIMEOUT=64,SINK_STALL_EN=1'b1,SINK_STALL_PERIOD=4,SINK_STALL_READY=1)/dut/u_fifo/Always163_9  Scope: \tb_pcie_axi_dma(TB_SCENARIO=2,FIFO_DEPTH=16,BATCH_COUNT=4,BATCH_TIMEOUT=64,SINK_STALL_EN=1'b1,SINK_STALL_PERIOD=4,SINK_STALL_READY=1) .dut.u_fifo  File: /get/work/krishna.vardhan/git_trees/mtp_pcie_axi/pcie_axi_dma_latency/design/rtl/axis_fifo.sv Line: 165
Warning: [axis_fifo] FIFO full (depth=16) — upstream back-pressured at t=10475000
Time: 10475 ns  Iteration: 0  Process: /tb_pcie_axi_dma(TB_SCENARIO=2,FIFO_DEPTH=16,BATCH_COUNT=4,BATCH_TIMEOUT=64,SINK_STALL_EN=1'b1,SINK_STALL_PERIOD=4,SINK_STALL_READY=1)/dut/u_fifo/Always163_9  Scope: \tb_pcie_axi_dma(TB_SCENARIO=2,FIFO_DEPTH=16,BATCH_COUNT=4,BATCH_TIMEOUT=64,SINK_STALL_EN=1'b1,SINK_STALL_PERIOD=4,SINK_STALL_READY=1) .dut.u_fifo  File: /get/work/krishna.vardhan/git_trees/mtp_pcie_axi/pcie_axi_dma_latency/design/rtl/axis_fifo.sv Line: 165
Warning: [axis_fifo] FIFO full (depth=16) — upstream back-pressured at t=10485000
Time: 10485 ns  Iteration: 0  Process: /tb_pcie_axi_dma(TB_SCENARIO=2,FIFO_DEPTH=16,BATCH_COUNT=4,BATCH_TIMEOUT=64,SINK_STALL_EN=1'b1,SINK_STALL_PERIOD=4,SINK_STALL_READY=1)/dut/u_fifo/Always163_9  Scope: \tb_pcie_axi_dma(TB_SCENARIO=2,FIFO_DEPTH=16,BATCH_COUNT=4,BATCH_TIMEOUT=64,SINK_STALL_EN=1'b1,SINK_STALL_PERIOD=4,SINK_STALL_READY=1) .dut.u_fifo  File: /get/work/krishna.vardhan/git_trees/mtp_pcie_axi/pcie_axi_dma_latency/design/rtl/axis_fifo.sv Line: 165
Warning: [axis_fifo] FIFO full (depth=16) — upstream back-pressured at t=10495000
Time: 10495 ns  Iteration: 0  Process: /tb_pcie_axi_dma(TB_SCENARIO=2,FIFO_DEPTH=16,BATCH_COUNT=4,BATCH_TIMEOUT=64,SINK_STALL_EN=1'b1,SINK_STALL_PERIOD=4,SINK_STALL_READY=1)/dut/u_fifo/Always163_9  Scope: \tb_pcie_axi_dma(TB_SCENARIO=2,FIFO_DEPTH=16,BATCH_COUNT=4,BATCH_TIMEOUT=64,SINK_STALL_EN=1'b1,SINK_STALL_PERIOD=4,SINK_STALL_READY=1) .dut.u_fifo  File: /get/work/krishna.vardhan/git_trees/mtp_pcie_axi/pcie_axi_dma_latency/design/rtl/axis_fifo.sv Line: 165
Warning: [axis_fifo] FIFO full (depth=16) — upstream back-pressured at t=10515000
Time: 10515 ns  Iteration: 0  Process: /tb_pcie_axi_dma(TB_SCENARIO=2,FIFO_DEPTH=16,BATCH_COUNT=4,BATCH_TIMEOUT=64,SINK_STALL_EN=1'b1,SINK_STALL_PERIOD=4,SINK_STALL_READY=1)/dut/u_fifo/Always163_9  Scope: \tb_pcie_axi_dma(TB_SCENARIO=2,FIFO_DEPTH=16,BATCH_COUNT=4,BATCH_TIMEOUT=64,SINK_STALL_EN=1'b1,SINK_STALL_PERIOD=4,SINK_STALL_READY=1) .dut.u_fifo  File: /get/work/krishna.vardhan/git_trees/mtp_pcie_axi/pcie_axi_dma_latency/design/rtl/axis_fifo.sv Line: 165
Warning: [axis_fifo] FIFO full (depth=16) — upstream back-pressured at t=10525000
Time: 10525 ns  Iteration: 0  Process: /tb_pcie_axi_dma(TB_SCENARIO=2,FIFO_DEPTH=16,BATCH_COUNT=4,BATCH_TIMEOUT=64,SINK_STALL_EN=1'b1,SINK_STALL_PERIOD=4,SINK_STALL_READY=1)/dut/u_fifo/Always163_9  Scope: \tb_pcie_axi_dma(TB_SCENARIO=2,FIFO_DEPTH=16,BATCH_COUNT=4,BATCH_TIMEOUT=64,SINK_STALL_EN=1'b1,SINK_STALL_PERIOD=4,SINK_STALL_READY=1) .dut.u_fifo  File: /get/work/krishna.vardhan/git_trees/mtp_pcie_axi/pcie_axi_dma_latency/design/rtl/axis_fifo.sv Line: 165
Warning: [axis_fifo] FIFO full (depth=16) — upstream back-pressured at t=10535000
Time: 10535 ns  Iteration: 0  Process: /tb_pcie_axi_dma(TB_SCENARIO=2,FIFO_DEPTH=16,BATCH_COUNT=4,BATCH_TIMEOUT=64,SINK_STALL_EN=1'b1,SINK_STALL_PERIOD=4,SINK_STALL_READY=1)/dut/u_fifo/Always163_9  Scope: \tb_pcie_axi_dma(TB_SCENARIO=2,FIFO_DEPTH=16,BATCH_COUNT=4,BATCH_TIMEOUT=64,SINK_STALL_EN=1'b1,SINK_STALL_PERIOD=4,SINK_STALL_READY=1) .dut.u_fifo  File: /get/work/krishna.vardhan/git_trees/mtp_pcie_axi/pcie_axi_dma_latency/design/rtl/axis_fifo.sv Line: 165
Warning: [axis_fifo] FIFO full (depth=16) — upstream back-pressured at t=10555000
Time: 10555 ns  Iteration: 0  Process: /tb_pcie_axi_dma(TB_SCENARIO=2,FIFO_DEPTH=16,BATCH_COUNT=4,BATCH_TIMEOUT=64,SINK_STALL_EN=1'b1,SINK_STALL_PERIOD=4,SINK_STALL_READY=1)/dut/u_fifo/Always163_9  Scope: \tb_pcie_axi_dma(TB_SCENARIO=2,FIFO_DEPTH=16,BATCH_COUNT=4,BATCH_TIMEOUT=64,SINK_STALL_EN=1'b1,SINK_STALL_PERIOD=4,SINK_STALL_READY=1) .dut.u_fifo  File: /get/work/krishna.vardhan/git_trees/mtp_pcie_axi/pcie_axi_dma_latency/design/rtl/axis_fifo.sv Line: 165
Warning: [axis_fifo] FIFO full (depth=16) — upstream back-pressured at t=10565000
Time: 10565 ns  Iteration: 0  Process: /tb_pcie_axi_dma(TB_SCENARIO=2,FIFO_DEPTH=16,BATCH_COUNT=4,BATCH_TIMEOUT=64,SINK_STALL_EN=1'b1,SINK_STALL_PERIOD=4,SINK_STALL_READY=1)/dut/u_fifo/Always163_9  Scope: \tb_pcie_axi_dma(TB_SCENARIO=2,FIFO_DEPTH=16,BATCH_COUNT=4,BATCH_TIMEOUT=64,SINK_STALL_EN=1'b1,SINK_STALL_PERIOD=4,SINK_STALL_READY=1) .dut.u_fifo  File: /get/work/krishna.vardhan/git_trees/mtp_pcie_axi/pcie_axi_dma_latency/design/rtl/axis_fifo.sv Line: 165
Warning: [axis_fifo] FIFO full (depth=16) — upstream back-pressured at t=10575000
Time: 10575 ns  Iteration: 0  Process: /tb_pcie_axi_dma(TB_SCENARIO=2,FIFO_DEPTH=16,BATCH_COUNT=4,BATCH_TIMEOUT=64,SINK_STALL_EN=1'b1,SINK_STALL_PERIOD=4,SINK_STALL_READY=1)/dut/u_fifo/Always163_9  Scope: \tb_pcie_axi_dma(TB_SCENARIO=2,FIFO_DEPTH=16,BATCH_COUNT=4,BATCH_TIMEOUT=64,SINK_STALL_EN=1'b1,SINK_STALL_PERIOD=4,SINK_STALL_READY=1) .dut.u_fifo  File: /get/work/krishna.vardhan/git_trees/mtp_pcie_axi/pcie_axi_dma_latency/design/rtl/axis_fifo.sv Line: 165
Warning: [axis_fifo] FIFO full (depth=16) — upstream back-pressured at t=10595000
Time: 10595 ns  Iteration: 0  Process: /tb_pcie_axi_dma(TB_SCENARIO=2,FIFO_DEPTH=16,BATCH_COUNT=4,BATCH_TIMEOUT=64,SINK_STALL_EN=1'b1,SINK_STALL_PERIOD=4,SINK_STALL_READY=1)/dut/u_fifo/Always163_9  Scope: \tb_pcie_axi_dma(TB_SCENARIO=2,FIFO_DEPTH=16,BATCH_COUNT=4,BATCH_TIMEOUT=64,SINK_STALL_EN=1'b1,SINK_STALL_PERIOD=4,SINK_STALL_READY=1) .dut.u_fifo  File: /get/work/krishna.vardhan/git_trees/mtp_pcie_axi/pcie_axi_dma_latency/design/rtl/axis_fifo.sv Line: 165
Warning: [axis_fifo] FIFO full (depth=16) — upstream back-pressured at t=10605000
Time: 10605 ns  Iteration: 0  Process: /tb_pcie_axi_dma(TB_SCENARIO=2,FIFO_DEPTH=16,BATCH_COUNT=4,BATCH_TIMEOUT=64,SINK_STALL_EN=1'b1,SINK_STALL_PERIOD=4,SINK_STALL_READY=1)/dut/u_fifo/Always163_9  Scope: \tb_pcie_axi_dma(TB_SCENARIO=2,FIFO_DEPTH=16,BATCH_COUNT=4,BATCH_TIMEOUT=64,SINK_STALL_EN=1'b1,SINK_STALL_PERIOD=4,SINK_STALL_READY=1) .dut.u_fifo  File: /get/work/krishna.vardhan/git_trees/mtp_pcie_axi/pcie_axi_dma_latency/design/rtl/axis_fifo.sv Line: 165
Warning: [axis_fifo] FIFO full (depth=16) — upstream back-pressured at t=10615000
Time: 10615 ns  Iteration: 0  Process: /tb_pcie_axi_dma(TB_SCENARIO=2,FIFO_DEPTH=16,BATCH_COUNT=4,BATCH_TIMEOUT=64,SINK_STALL_EN=1'b1,SINK_STALL_PERIOD=4,SINK_STALL_READY=1)/dut/u_fifo/Always163_9  Scope: \tb_pcie_axi_dma(TB_SCENARIO=2,FIFO_DEPTH=16,BATCH_COUNT=4,BATCH_TIMEOUT=64,SINK_STALL_EN=1'b1,SINK_STALL_PERIOD=4,SINK_STALL_READY=1) .dut.u_fifo  File: /get/work/krishna.vardhan/git_trees/mtp_pcie_axi/pcie_axi_dma_latency/design/rtl/axis_fifo.sv Line: 165
[sink]  t=11255000  pkt_id=3  size=512B  count=4
[latmon] pkt_id=3  size= 512B  latency=  541 cyc  eff= 0.95 B/cyc
[latmon]  ↳ est: PCIe=212  DMA=136  other=193  total_measured=541
[RESULT]       3 |      512 |           541 |               0.95 |        16 |   YES | BASELINE,FIFO=16,STALL=1/4
[dma_model] t=16785000  pkt_id=4  descriptor setup done  (SETUP_CYCLES=8)
Warning: [axis_fifo] FIFO full (depth=16) — upstream back-pressured at t=17005000
Time: 17005 ns  Iteration: 0  Process: /tb_pcie_axi_dma(TB_SCENARIO=2,FIFO_DEPTH=16,BATCH_COUNT=4,BATCH_TIMEOUT=64,SINK_STALL_EN=1'b1,SINK_STALL_PERIOD=4,SINK_STALL_READY=1)/dut/u_fifo/Always163_9  Scope: \tb_pcie_axi_dma(TB_SCENARIO=2,FIFO_DEPTH=16,BATCH_COUNT=4,BATCH_TIMEOUT=64,SINK_STALL_EN=1'b1,SINK_STALL_PERIOD=4,SINK_STALL_READY=1) .dut.u_fifo  File: /get/work/krishna.vardhan/git_trees/mtp_pcie_axi/pcie_axi_dma_latency/design/rtl/axis_fifo.sv Line: 165
Warning: [axis_fifo] FIFO full (depth=16) — upstream back-pressured at t=17015000
Time: 17015 ns  Iteration: 0  Process: /tb_pcie_axi_dma(TB_SCENARIO=2,FIFO_DEPTH=16,BATCH_COUNT=4,BATCH_TIMEOUT=64,SINK_STALL_EN=1'b1,SINK_STALL_PERIOD=4,SINK_STALL_READY=1)/dut/u_fifo/Always163_9  Scope: \tb_pcie_axi_dma(TB_SCENARIO=2,FIFO_DEPTH=16,BATCH_COUNT=4,BATCH_TIMEOUT=64,SINK_STALL_EN=1'b1,SINK_STALL_PERIOD=4,SINK_STALL_READY=1) .dut.u_fifo  File: /get/work/krishna.vardhan/git_trees/mtp_pcie_axi/pcie_axi_dma_latency/design/rtl/axis_fifo.sv Line: 165
Warning: [axis_fifo] FIFO full (depth=16) — upstream back-pressured at t=17035000
Time: 17035 ns  Iteration: 0  Process: /tb_pcie_axi_dma(TB_SCENARIO=2,FIFO_DEPTH=16,BATCH_COUNT=4,BATCH_TIMEOUT=64,SINK_STALL_EN=1'b1,SINK_STALL_PERIOD=4,SINK_STALL_READY=1)/dut/u_fifo/Always163_9  Scope: \tb_pcie_axi_dma(TB_SCENARIO=2,FIFO_DEPTH=16,BATCH_COUNT=4,BATCH_TIMEOUT=64,SINK_STALL_EN=1'b1,SINK_STALL_PERIOD=4,SINK_STALL_READY=1) .dut.u_fifo  File: /get/work/krishna.vardhan/git_trees/mtp_pcie_axi/pcie_axi_dma_latency/design/rtl/axis_fifo.sv Line: 165
Warning: [axis_fifo] FIFO full (depth=16) — upstream back-pressured at t=17045000
Time: 17045 ns  Iteration: 0  Process: /tb_pcie_axi_dma(TB_SCENARIO=2,FIFO_DEPTH=16,BATCH_COUNT=4,BATCH_TIMEOUT=64,SINK_STALL_EN=1'b1,SINK_STALL_PERIOD=4,SINK_STALL_READY=1)/dut/u_fifo/Always163_9  Scope: \tb_pcie_axi_dma(TB_SCENARIO=2,FIFO_DEPTH=16,BATCH_COUNT=4,BATCH_TIMEOUT=64,SINK_STALL_EN=1'b1,SINK_STALL_PERIOD=4,SINK_STALL_READY=1) .dut.u_fifo  File: /get/work/krishna.vardhan/git_trees/mtp_pcie_axi/pcie_axi_dma_latency/design/rtl/axis_fifo.sv Line: 165
Warning: [axis_fifo] FIFO full (depth=16) — upstream back-pressured at t=17055000
Time: 17055 ns  Iteration: 0  Process: /tb_pcie_axi_dma(TB_SCENARIO=2,FIFO_DEPTH=16,BATCH_COUNT=4,BATCH_TIMEOUT=64,SINK_STALL_EN=1'b1,SINK_STALL_PERIOD=4,SINK_STALL_READY=1)/dut/u_fifo/Always163_9  Scope: \tb_pcie_axi_dma(TB_SCENARIO=2,FIFO_DEPTH=16,BATCH_COUNT=4,BATCH_TIMEOUT=64,SINK_STALL_EN=1'b1,SINK_STALL_PERIOD=4,SINK_STALL_READY=1) .dut.u_fifo  File: /get/work/krishna.vardhan/git_trees/mtp_pcie_axi/pcie_axi_dma_latency/design/rtl/axis_fifo.sv Line: 165
Warning: [axis_fifo] FIFO full (depth=16) — upstream back-pressured at t=17075000
Time: 17075 ns  Iteration: 0  Process: /tb_pcie_axi_dma(TB_SCENARIO=2,FIFO_DEPTH=16,BATCH_COUNT=4,BATCH_TIMEOUT=64,SINK_STALL_EN=1'b1,SINK_STALL_PERIOD=4,SINK_STALL_READY=1)/dut/u_fifo/Always163_9  Scope: \tb_pcie_axi_dma(TB_SCENARIO=2,FIFO_DEPTH=16,BATCH_COUNT=4,BATCH_TIMEOUT=64,SINK_STALL_EN=1'b1,SINK_STALL_PERIOD=4,SINK_STALL_READY=1) .dut.u_fifo  File: /get/work/krishna.vardhan/git_trees/mtp_pcie_axi/pcie_axi_dma_latency/design/rtl/axis_fifo.sv Line: 165
Warning: [axis_fifo] FIFO full (depth=16) — upstream back-pressured at t=17085000
Time: 17085 ns  Iteration: 0  Process: /tb_pcie_axi_dma(TB_SCENARIO=2,FIFO_DEPTH=16,BATCH_COUNT=4,BATCH_TIMEOUT=64,SINK_STALL_EN=1'b1,SINK_STALL_PERIOD=4,SINK_STALL_READY=1)/dut/u_fifo/Always163_9  Scope: \tb_pcie_axi_dma(TB_SCENARIO=2,FIFO_DEPTH=16,BATCH_COUNT=4,BATCH_TIMEOUT=64,SINK_STALL_EN=1'b1,SINK_STALL_PERIOD=4,SINK_STALL_READY=1) .dut.u_fifo  File: /get/work/krishna.vardhan/git_trees/mtp_pcie_axi/pcie_axi_dma_latency/design/rtl/axis_fifo.sv Line: 165
Warning: [axis_fifo] FIFO full (depth=16) — upstream back-pressured at t=17095000
Time: 17095 ns  Iteration: 0  Process: /tb_pcie_axi_dma(TB_SCENARIO=2,FIFO_DEPTH=16,BATCH_COUNT=4,BATCH_TIMEOUT=64,SINK_STALL_EN=1'b1,SINK_STALL_PERIOD=4,SINK_STALL_READY=1)/dut/u_fifo/Always163_9  Scope: \tb_pcie_axi_dma(TB_SCENARIO=2,FIFO_DEPTH=16,BATCH_COUNT=4,BATCH_TIMEOUT=64,SINK_STALL_EN=1'b1,SINK_STALL_PERIOD=4,SINK_STALL_READY=1) .dut.u_fifo  File: /get/work/krishna.vardhan/git_trees/mtp_pcie_axi/pcie_axi_dma_latency/design/rtl/axis_fifo.sv Line: 165
Warning: [axis_fifo] FIFO full (depth=16) — upstream back-pressured at t=17115000
Time: 17115 ns  Iteration: 0  Process: /tb_pcie_axi_dma(TB_SCENARIO=2,FIFO_DEPTH=16,BATCH_COUNT=4,BATCH_TIMEOUT=64,SINK_STALL_EN=1'b1,SINK_STALL_PERIOD=4,SINK_STALL_READY=1)/dut/u_fifo/Always163_9  Scope: \tb_pcie_axi_dma(TB_SCENARIO=2,FIFO_DEPTH=16,BATCH_COUNT=4,BATCH_TIMEOUT=64,SINK_STALL_EN=1'b1,SINK_STALL_PERIOD=4,SINK_STALL_READY=1) .dut.u_fifo  File: /get/work/krishna.vardhan/git_trees/mtp_pcie_axi/pcie_axi_dma_latency/design/rtl/axis_fifo.sv Line: 165
Warning: [axis_fifo] FIFO full (depth=16) — upstream back-pressured at t=17125000
