mkdir -p /get/work/krishna.vardhan/git_trees/mtp_pcie_axi/pcie_axi_dma_latency/build_kv_scenario2_stall_fifo256
cd /get/work/krishna.vardhan/git_trees/mtp_pcie_axi/pcie_axi_dma_latency/build_kv_scenario2_stall_fifo256 && \
xvlog --sv --incr \
    /get/work/krishna.vardhan/git_trees/mtp_pcie_axi/pcie_axi_dma_latency/design/rtl/pcie_axi_pkg.sv /get/work/krishna.vardhan/git_trees/mtp_pcie_axi/pcie_axi_dma_latency/design/rtl/pcie_model.sv /get/work/krishna.vardhan/git_trees/mtp_pcie_axi/pcie_axi_dma_latency/design/rtl/dma_model.sv /get/work/krishna.vardhan/git_trees/mtp_pcie_axi/pcie_axi_dma_latency/design/rtl/axi_mm2s_adapter.sv /get/work/krishna.vardhan/git_trees/mtp_pcie_axi/pcie_axi_dma_latency/design/rtl/axis_fifo.sv /get/work/krishna.vardhan/git_trees/mtp_pcie_axi/pcie_axi_dma_latency/design/rtl/batching_unit.sv /get/work/krishna.vardhan/git_trees/mtp_pcie_axi/pcie_axi_dma_latency/design/rtl/stream_sink.sv /get/work/krishna.vardhan/git_trees/mtp_pcie_axi/pcie_axi_dma_latency/design/rtl/latency_monitor.sv /get/work/krishna.vardhan/git_trees/mtp_pcie_axi/pcie_axi_dma_latency/design/rtl/pcie_axi_dma_top.sv /get/work/krishna.vardhan/git_trees/mtp_pcie_axi/pcie_axi_dma_latency/verif/tb/tb_pcie_axi_dma.sv \
    -log xvlog.log
INFO: [VRFC 10-2263] Analyzing SystemVerilog file "/get/work/krishna.vardhan/git_trees/mtp_pcie_axi/pcie_axi_dma_latency/design/rtl/pcie_axi_pkg.sv" into library work
INFO: [VRFC 10-2263] Analyzing SystemVerilog file "/get/work/krishna.vardhan/git_trees/mtp_pcie_axi/pcie_axi_dma_latency/design/rtl/pcie_model.sv" into library work
INFO: [VRFC 10-311] analyzing module pcie_model
INFO: [VRFC 10-2263] Analyzing SystemVerilog file "/get/work/krishna.vardhan/git_trees/mtp_pcie_axi/pcie_axi_dma_latency/design/rtl/dma_model.sv" into library work
INFO: [VRFC 10-311] analyzing module dma_model
INFO: [VRFC 10-2263] Analyzing SystemVerilog file "/get/work/krishna.vardhan/git_trees/mtp_pcie_axi/pcie_axi_dma_latency/design/rtl/axi_mm2s_adapter.sv" into library work
INFO: [VRFC 10-311] analyzing module axi_mm2s_adapter
INFO: [VRFC 10-2263] Analyzing SystemVerilog file "/get/work/krishna.vardhan/git_trees/mtp_pcie_axi/pcie_axi_dma_latency/design/rtl/axis_fifo.sv" into library work
INFO: [VRFC 10-311] analyzing module axis_fifo
INFO: [VRFC 10-2263] Analyzing SystemVerilog file "/get/work/krishna.vardhan/git_trees/mtp_pcie_axi/pcie_axi_dma_latency/design/rtl/batching_unit.sv" into library work
INFO: [VRFC 10-311] analyzing module batching_unit
INFO: [VRFC 10-2263] Analyzing SystemVerilog file "/get/work/krishna.vardhan/git_trees/mtp_pcie_axi/pcie_axi_dma_latency/design/rtl/stream_sink.sv" into library work
INFO: [VRFC 10-311] analyzing module stream_sink
INFO: [VRFC 10-2263] Analyzing SystemVerilog file "/get/work/krishna.vardhan/git_trees/mtp_pcie_axi/pcie_axi_dma_latency/design/rtl/latency_monitor.sv" into library work
INFO: [VRFC 10-311] analyzing module latency_monitor
INFO: [VRFC 10-2263] Analyzing SystemVerilog file "/get/work/krishna.vardhan/git_trees/mtp_pcie_axi/pcie_axi_dma_latency/design/rtl/pcie_axi_dma_top.sv" into library work
INFO: [VRFC 10-311] analyzing module pcie_axi_dma_top
INFO: [VRFC 10-2263] Analyzing SystemVerilog file "/get/work/krishna.vardhan/git_trees/mtp_pcie_axi/pcie_axi_dma_latency/verif/tb/tb_pcie_axi_dma.sv" into library work
INFO: [VRFC 10-311] analyzing module tb_pcie_axi_dma
touch /get/work/krishna.vardhan/git_trees/mtp_pcie_axi/pcie_axi_dma_latency/build_kv_scenario2_stall_fifo256/.compiled
cd /get/work/krishna.vardhan/git_trees/mtp_pcie_axi/pcie_axi_dma_latency/build_kv_scenario2_stall_fifo256 && \
xelab tb_pcie_axi_dma \
    --snapshot tb_pcie_axi_dma_snap \
    -generic_top "TB_SCENARIO=2" -generic_top "FIFO_DEPTH=256" -generic_top "BATCH_COUNT=4" -generic_top "BATCH_TIMEOUT=64" -generic_top "SINK_STALL_EN=1" -generic_top "SINK_STALL_PERIOD=4" -generic_top "SINK_STALL_READY=1" \
    --timescale 1ns/1ps \
    --debug typical \
    -log xelab.log
Vivado Simulator v2022.2
Copyright 1986-1999, 2001-2022 Xilinx, Inc. All Rights Reserved.
Running: /tools/Xilinx/Vivado/2022.2/bin/unwrapped/lnx64.o/xelab tb_pcie_axi_dma --snapshot tb_pcie_axi_dma_snap -generic_top TB_SCENARIO=2 -generic_top FIFO_DEPTH=256 -generic_top BATCH_COUNT=4 -generic_top BATCH_TIMEOUT=64 -generic_top SINK_STALL_EN=1 -generic_top SINK_STALL_PERIOD=4 -generic_top SINK_STALL_READY=1 --timescale 1ns/1ps --debug typical -log xelab.log 
Multi-threading is on. Using 2 slave threads.
Starting static elaboration
Pass Through NonSizing Optimizer
Completed static elaboration
Starting simulation data flow analysis
Completed simulation data flow analysis
Time Resolution for simulation is 1ps
Compiling package work.pcie_axi_pkg
Compiling module work.pcie_model(DATA_WIDTH=64,PKT_SIZ...
Compiling module work.dma_model(DATA_WIDTH=64,PKT_SIZE...
Compiling module work.axi_mm2s_adapter(DATA_WIDTH=64,P...
Compiling module work.axis_fifo(DATA_WIDTH=64,PKT_SIZE...
Compiling module work.batching_unit(DATA_WIDTH=64,PKT_...
Compiling module work.stream_sink(DATA_WIDTH=64,PKT_SI...
Compiling module work.latency_monitor(PKT_ID_W=8,PKT_S...
Compiling module work.pcie_axi_dma_top(DATA_WIDTH=64,P...
Compiling module work.tb_pcie_axi_dma(TB_SCENARIO=2,FI...
Built simulation snapshot tb_pcie_axi_dma_snap
touch /get/work/krishna.vardhan/git_trees/mtp_pcie_axi/pcie_axi_dma_latency/build_kv_scenario2_stall_fifo256/.elaborated
cd /get/work/krishna.vardhan/git_trees/mtp_pcie_axi/pcie_axi_dma_latency/build_kv_scenario2_stall_fifo256 && \
xsim tb_pcie_axi_dma_snap \
    --runall \
    --log xsim_batch.log

****** xsim v2022.2 (64-bit)
  **** SW Build 3671981 on Fri Oct 14 04:59:54 MDT 2022
  **** IP Build 3669848 on Fri Oct 14 08:30:02 MDT 2022
    ** Copyright 1986-2022 Xilinx, Inc. All Rights Reserved.

source xsim.dir/tb_pcie_axi_dma_snap/xsim_script.tcl
# xsim {tb_pcie_axi_dma_snap} -autoloadwcfg -runall
Time resolution is 1 ps
run -all
[batching_unit] Bypass mode (enable=0)

[RESULT] ================================================================
[RESULT]  PCIe-AXI DMA Latency Simulation  |  Config: BASELINE,FIFO=256,STALL=1/4
[RESULT] ================================================================
[RESULT]  PKT_ID | SIZE (B) | LATENCY (cyc) | EFFICIENCY (B/cyc) | FIFO_PEAK | FULL?
[RESULT] ----------------------------------------------------------------
[dma_model] t=775000  pkt_id=0  descriptor setup done  (SETUP_CYCLES=8)
[sink]  t=1095000  pkt_id=0  size=64B  count=1
[latmon] pkt_id=0  size=  64B  latency=   94 cyc  eff= 0.68 B/cyc
[latmon]  ↳ est: PCIe=44  DMA=24  other=26  total_measured=94
[RESULT]       0 |       64 |            94 |               0.68 |         6 |    no | BASELINE,FIFO=256,STALL=1/4
[dma_model] t=2145000  pkt_id=1  descriptor setup done  (SETUP_CYCLES=8)
[sink]  t=2775000  pkt_id=1  size=128B  count=2
[latmon] pkt_id=1  size= 128B  latency=  157 cyc  eff= 0.82 B/cyc
[latmon]  ↳ est: PCIe=68  DMA=40  other=49  total_measured=157
[RESULT]       1 |      128 |           157 |               0.82 |        12 |    no | BASELINE,FIFO=256,STALL=1/4
[dma_model] t=4465000  pkt_id=2  descriptor setup done  (SETUP_CYCLES=8)
[sink]  t=5735000  pkt_id=2  size=256B  count=3
[latmon] pkt_id=2  size= 256B  latency=  285 cyc  eff= 0.90 B/cyc
[latmon]  ↳ est: PCIe=116  DMA=72  other=97  total_measured=285
[RESULT]       2 |      256 |           285 |               0.90 |        24 |    no | BASELINE,FIFO=256,STALL=1/4
[dma_model] t=8705000  pkt_id=3  descriptor setup done  (SETUP_CYCLES=8)
[sink]  t=11255000  pkt_id=3  size=512B  count=4
[latmon] pkt_id=3  size= 512B  latency=  541 cyc  eff= 0.95 B/cyc
[latmon]  ↳ est: PCIe=212  DMA=136  other=193  total_measured=541
[RESULT]       3 |      512 |           541 |               0.95 |        48 |    no | BASELINE,FIFO=256,STALL=1/4
[dma_model] t=16785000  pkt_id=4  descriptor setup done  (SETUP_CYCLES=8)
[sink]  t=21895000  pkt_id=4  size=1024B  count=5
[latmon] pkt_id=4  size=1024B  latency= 1053 cyc  eff= 0.97 B/cyc
[latmon]  ↳ est: PCIe=404  DMA=264  other=385  total_measured=1053
[RESULT]       4 |     1024 |          1053 |               0.97 |        96 |    no | BASELINE,FIFO=256,STALL=1/4
[dma_model] t=42785000  pkt_id=5  descriptor setup done  (SETUP_CYCLES=8)
Warning: [axis_fifo] FIFO full (depth=256) — upstream back-pressured at t=46205000
Time: 46205 ns  Iteration: 0  Process: /tb_pcie_axi_dma(TB_SCENARIO=2,FIFO_DEPTH=256,BATCH_COUNT=4,BATCH_TIMEOUT=64,SINK_STALL_EN=1'b1,SINK_STALL_PERIOD=4,SINK_STALL_READY=1)/dut/u_fifo/Always163_9  Scope: \tb_pcie_axi_dma(TB_SCENARIO=2,FIFO_DEPTH=256,BATCH_COUNT=4,BATCH_TIMEOUT=64,SINK_STALL_EN=1'b1,SINK_STALL_PERIOD=4,SINK_STALL_READY=1) .dut.u_fifo  File: /get/work/krishna.vardhan/git_trees/mtp_pcie_axi/pcie_axi_dma_latency/design/rtl/axis_fifo.sv Line: 165
Warning: [axis_fifo] FIFO full (depth=256) — upstream back-pressured at t=46215000
Time: 46215 ns  Iteration: 0  Process: /tb_pcie_axi_dma(TB_SCENARIO=2,FIFO_DEPTH=256,BATCH_COUNT=4,BATCH_TIMEOUT=64,SINK_STALL_EN=1'b1,SINK_STALL_PERIOD=4,SINK_STALL_READY=1)/dut/u_fifo/Always163_9  Scope: \tb_pcie_axi_dma(TB_SCENARIO=2,FIFO_DEPTH=256,BATCH_COUNT=4,BATCH_TIMEOUT=64,SINK_STALL_EN=1'b1,SINK_STALL_PERIOD=4,SINK_STALL_READY=1) .dut.u_fifo  File: /get/work/krishna.vardhan/git_trees/mtp_pcie_axi/pcie_axi_dma_latency/design/rtl/axis_fifo.sv Line: 165
Warning: [axis_fifo] FIFO full (depth=256) — upstream back-pressured at t=46235000
Time: 46235 ns  Iteration: 0  Process: /tb_pcie_axi_dma(TB_SCENARIO=2,FIFO_DEPTH=256,BATCH_COUNT=4,BATCH_TIMEOUT=64,SINK_STALL_EN=1'b1,SINK_STALL_PERIOD=4,SINK_STALL_READY=1)/dut/u_fifo/Always163_9  Scope: \tb_pcie_axi_dma(TB_SCENARIO=2,FIFO_DEPTH=256,BATCH_COUNT=4,BATCH_TIMEOUT=64,SINK_STALL_EN=1'b1,SINK_STALL_PERIOD=4,SINK_STALL_READY=1) .dut.u_fifo  File: /get/work/krishna.vardhan/git_trees/mtp_pcie_axi/pcie_axi_dma_latency/design/rtl/axis_fifo.sv Line: 165
Warning: [axis_fifo] FIFO full (depth=256) — upstream back-pressured at t=46245000
Time: 46245 ns  Iteration: 0  Process: /tb_pcie_axi_dma(TB_SCENARIO=2,FIFO_DEPTH=256,BATCH_COUNT=4,BATCH_TIMEOUT=64,SINK_STALL_EN=1'b1,SINK_STALL_PERIOD=4,SINK_STALL_READY=1)/dut/u_fifo/Always163_9  Scope: \tb_pcie_axi_dma(TB_SCENARIO=2,FIFO_DEPTH=256,BATCH_COUNT=4,BATCH_TIMEOUT=64,SINK_STALL_EN=1'b1,SINK_STALL_PERIOD=4,SINK_STALL_READY=1) .dut.u_fifo  File: /get/work/krishna.vardhan/git_trees/mtp_pcie_axi/pcie_axi_dma_latency/design/rtl/axis_fifo.sv Line: 165
Warning: [axis_fifo] FIFO full (depth=256) — upstream back-pressured at t=46255000
Time: 46255 ns  Iteration: 0  Process: /tb_pcie_axi_dma(TB_SCENARIO=2,FIFO_DEPTH=256,BATCH_COUNT=4,BATCH_TIMEOUT=64,SINK_STALL_EN=1'b1,SINK_STALL_PERIOD=4,SINK_STALL_READY=1)/dut/u_fifo/Always163_9  Scope: \tb_pcie_axi_dma(TB_SCENARIO=2,FIFO_DEPTH=256,BATCH_COUNT=4,BATCH_TIMEOUT=64,SINK_STALL_EN=1'b1,SINK_STALL_PERIOD=4,SINK_STALL_READY=1) .dut.u_fifo  File: /get/work/krishna.vardhan/git_trees/mtp_pcie_axi/pcie_axi_dma_latency/design/rtl/axis_fifo.sv Line: 165
Warning: [axis_fifo] FIFO full (depth=256) — upstream back-pressured at t=46275000
Time: 46275 ns  Iteration: 0  Process: /tb_pcie_axi_dma(TB_SCENARIO=2,FIFO_DEPTH=256,BATCH_COUNT=4,BATCH_TIMEOUT=64,SINK_STALL_EN=1'b1,SINK_STALL_PERIOD=4,SINK_STALL_READY=1)/dut/u_fifo/Always163_9  Scope: \tb_pcie_axi_dma(TB_SCENARIO=2,FIFO_DEPTH=256,BATCH_COUNT=4,BATCH_TIMEOUT=64,SINK_STALL_EN=1'b1,SINK_STALL_PERIOD=4,SINK_STALL_READY=1) .dut.u_fifo  File: /get/work/krishna.vardhan/git_trees/mtp_pcie_axi/pcie_axi_dma_latency/design/rtl/axis_fifo.sv Line: 165
Warning: [axis_fifo] FIFO full (depth=256) — upstream back-pressured at t=46285000
Time: 46285 ns  Iteration: 0  Process: /tb_pcie_axi_dma(TB_SCENARIO=2,FIFO_DEPTH=256,BATCH_COUNT=4,BATCH_TIMEOUT=64,SINK_STALL_EN=1'b1,SINK_STALL_PERIOD=4,SINK_STALL_READY=1)/dut/u_fifo/Always163_9  Scope: \tb_pcie_axi_dma(TB_SCENARIO=2,FIFO_DEPTH=256,BATCH_COUNT=4,BATCH_TIMEOUT=64,SINK_STALL_EN=1'b1,SINK_STALL_PERIOD=4,SINK_STALL_READY=1) .dut.u_fifo  File: /get/work/krishna.vardhan/git_trees/mtp_pcie_axi/pcie_axi_dma_latency/design/rtl/axis_fifo.sv Line: 165
Warning: [axis_fifo] FIFO full (depth=256) — upstream back-pressured at t=46295000
Time: 46295 ns  Iteration: 0  Process: /tb_pcie_axi_dma(TB_SCENARIO=2,FIFO_DEPTH=256,BATCH_COUNT=4,BATCH_TIMEOUT=64,SINK_STALL_EN=1'b1,SINK_STALL_PERIOD=4,SINK_STALL_READY=1)/dut/u_fifo/Always163_9  Scope: \tb_pcie_axi_dma(TB_SCENARIO=2,FIFO_DEPTH=256,BATCH_COUNT=4,BATCH_TIMEOUT=64,SINK_STALL_EN=1'b1,SINK_STALL_PERIOD=4,SINK_STALL_READY=1) .dut.u_fifo  File: /get/work/krishna.vardhan/git_trees/mtp_pcie_axi/pcie_axi_dma_latency/design/rtl/axis_fifo.sv Line: 165
Warning: [axis_fifo] FIFO full (depth=256) — upstream back-pressured at t=46315000
Time: 46315 ns  Iteration: 0  Process: /tb_pcie_axi_dma(TB_SCENARIO=2,FIFO_DEPTH=256,BATCH_COUNT=4,BATCH_TIMEOUT=64,SINK_STALL_EN=1'b1,SINK_STALL_PERIOD=4,SINK_STALL_READY=1)/dut/u_fifo/Always163_9  Scope: \tb_pcie_axi_dma(TB_SCENARIO=2,FIFO_DEPTH=256,BATCH_COUNT=4,BATCH_TIMEOUT=64,SINK_STALL_EN=1'b1,SINK_STALL_PERIOD=4,SINK_STALL_READY=1) .dut.u_fifo  File: /get/work/krishna.vardhan/git_trees/mtp_pcie_axi/pcie_axi_dma_latency/design/rtl/axis_fifo.sv Line: 165
Warning: [axis_fifo] FIFO full (depth=256) — upstream back-pressured at t=46325000
Time: 46325 ns  Iteration: 0  Process: /tb_pcie_axi_dma(TB_SCENARIO=2,FIFO_DEPTH=256,BATCH_COUNT=4,BATCH_TIMEOUT=64,SINK_STALL_EN=1'b1,SINK_STALL_PERIOD=4,SINK_STALL_READY=1)/dut/u_fifo/Always163_9  Scope: \tb_pcie_axi_dma(TB_SCENARIO=2,FIFO_DEPTH=256,BATCH_COUNT=4,BATCH_TIMEOUT=64,SINK_STALL_EN=1'b1,SINK_STALL_PERIOD=4,SINK_STALL_READY=1) .dut.u_fifo  File: /get/work/krishna.vardhan/git_trees/mtp_pcie_axi/pcie_axi_dma_latency/design/rtl/axis_fifo.sv Line: 165
Warning: [axis_fifo] FIFO full (depth=256) — upstream back-pressured at t=46335000
Time: 46335 ns  Iteration: 0  Process: /tb_pcie_axi_dma(TB_SCENARIO=2,FIFO_DEPTH=256,BATCH_COUNT=4,BATCH_TIMEOUT=64,SINK_STALL_EN=1'b1,SINK_STALL_PERIOD=4,SINK_STALL_READY=1)/dut/u_fifo/Always163_9  Scope: \tb_pcie_axi_dma(TB_SCENARIO=2,FIFO_DEPTH=256,BATCH_COUNT=4,BATCH_TIMEOUT=64,SINK_STALL_EN=1'b1,SINK_STALL_PERIOD=4,SINK_STALL_READY=1) .dut.u_fifo  File: /get/work/krishna.vardhan/git_trees/mtp_pcie_axi/pcie_axi_dma_latency/design/rtl/axis_fifo.sv Line: 165
Warning: [axis_fifo] FIFO full (depth=256) — upstream back-pressured at t=46355000
Time: 46355 ns  Iteration: 0  Process: /tb_pcie_axi_dma(TB_SCENARIO=2,FIFO_DEPTH=256,BATCH_COUNT=4,BATCH_TIMEOUT=64,SINK_STALL_EN=1'b1,SINK_STALL_PERIOD=4,SINK_STALL_READY=1)/dut/u_fifo/Always163_9  Scope: \tb_pcie_axi_dma(TB_SCENARIO=2,FIFO_DEPTH=256,BATCH_COUNT=4,BATCH_TIMEOUT=64,SINK_STALL_EN=1'b1,SINK_STALL_PERIOD=4,SINK_STALL_READY=1) .dut.u_fifo  File: /get/work/krishna.vardhan/git_trees/mtp_pcie_axi/pcie_axi_dma_latency/design/rtl/axis_fifo.sv Line: 165
Warning: [axis_fifo] FIFO full (depth=256) — upstream back-pressured at t=46365000
Time: 46365 ns  Iteration: 0  Process: /tb_pcie_axi_dma(TB_SCENARIO=2,FIFO_DEPTH=256,BATCH_COUNT=4,BATCH_TIMEOUT=64,SINK_STALL_EN=1'b1,SINK_STALL_PERIOD=4,SINK_STALL_READY=1)/dut/u_fifo/Always163_9  Scope: \tb_pcie_axi_dma(TB_SCENARIO=2,FIFO_DEPTH=256,BATCH_COUNT=4,BATCH_TIMEOUT=64,SINK_STALL_EN=1'b1,SINK_STALL_PERIOD=4,SINK_STALL_READY=1) .dut.u_fifo  File: /get/work/krishna.vardhan/git_trees/mtp_pcie_axi/pcie_axi_dma_latency/design/rtl/axis_fifo.sv Line: 165
Warning: [axis_fifo] FIFO full (depth=256) — upstream back-pressured at t=46375000
Time: 46375 ns  Iteration: 0  Process: /tb_pcie_axi_dma(TB_SCENARIO=2,FIFO_DEPTH=256,BATCH_COUNT=4,BATCH_TIMEOUT=64,SINK_STALL_EN=1'b1,SINK_STALL_PERIOD=4,SINK_STALL_READY=1)/dut/u_fifo/Always163_9  Scope: \tb_pcie_axi_dma(TB_SCENARIO=2,FIFO_DEPTH=256,BATCH_COUNT=4,BATCH_TIMEOUT=64,SINK_STALL_EN=1'b1,SINK_STALL_PERIOD=4,SINK_STALL_READY=1) .dut.u_fifo  File: /get/work/krishna.vardhan/git_trees/mtp_pcie_axi/pcie_axi_dma_latency/design/rtl/axis_fifo.sv Line: 165
Warning: [axis_fifo] FIFO full (depth=256) — upstream back-pressured at t=46395000
Time: 46395 ns  Iteration: 0  Process: /tb_pcie_axi_dma(TB_SCENARIO=2,FIFO_DEPTH=256,BATCH_COUNT=4,BATCH_TIMEOUT=64,SINK_STALL_EN=1'b1,SINK_STALL_PERIOD=4,SINK_STALL_READY=1)/dut/u_fifo/Always163_9  Scope: \tb_pcie_axi_dma(TB_SCENARIO=2,FIFO_DEPTH=256,BATCH_COUNT=4,BATCH_TIMEOUT=64,SINK_STALL_EN=1'b1,SINK_STALL_PERIOD=4,SINK_STALL_READY=1) .dut.u_fifo  File: /get/work/krishna.vardhan/git_trees/mtp_pcie_axi/pcie_axi_dma_latency/design/rtl/axis_fifo.sv Line: 165
Warning: [axis_fifo] FIFO full (depth=256) — upstream back-pressured at t=46405000
Time: 46405 ns  Iteration: 0  Process: /tb_pcie_axi_dma(TB_SCENARIO=2,FIFO_DEPTH=256,BATCH_COUNT=4,BATCH_TIMEOUT=64,SINK_STALL_EN=1'b1,SINK_STALL_PERIOD=4,SINK_STALL_READY=1)/dut/u_fifo/Always163_9  Scope: \tb_pcie_axi_dma(TB_SCENARIO=2,FIFO_DEPTH=256,BATCH_COUNT=4,BATCH_TIMEOUT=64,SINK_STALL_EN=1'b1,SINK_STALL_PERIOD=4,SINK_STALL_READY=1) .dut.u_fifo  File: /get/work/krishna.vardhan/git_trees/mtp_pcie_axi/pcie_axi_dma_latency/design/rtl/axis_fifo.sv Line: 165
Warning: [axis_fifo] FIFO full (depth=256) — upstream back-pressured at t=46415000
Time: 46415 ns  Iteration: 0  Process: /tb_pcie_axi_dma(TB_SCENARIO=2,FIFO_DEPTH=256,BATCH_COUNT=4,BATCH_TIMEOUT=64,SINK_STALL_EN=1'b1,SINK_STALL_PERIOD=4,SINK_STALL_READY=1)/dut/u_fifo/Always163_9  Scope: \tb_pcie_axi_dma(TB_SCENARIO=2,FIFO_DEPTH=256,BATCH_COUNT=4,BATCH_TIMEOUT=64,SINK_STALL_EN=1'b1,SINK_STALL_PERIOD=4,SINK_STALL_READY=1) .dut.u_fifo  File: /get/work/krishna.vardhan/git_trees/mtp_pcie_axi/pcie_axi_dma_latency/design/rtl/axis_fifo.sv Line: 165
Warning: [axis_fifo] FIFO full (depth=256) — upstream back-pressured at t=46435000
Time: 46435 ns  Iteration: 0  Process: /tb_pcie_axi_dma(TB_SCENARIO=2,FIFO_DEPTH=256,BATCH_COUNT=4,BATCH_TIMEOUT=64,SINK_STALL_EN=1'b1,SINK_STALL_PERIOD=4,SINK_STALL_READY=1)/dut/u_fifo/Always163_9  Scope: \tb_pcie_axi_dma(TB_SCENARIO=2,FIFO_DEPTH=256,BATCH_COUNT=4,BATCH_TIMEOUT=64,SINK_STALL_EN=1'b1,SINK_STALL_PERIOD=4,SINK_STALL_READY=1) .dut.u_fifo  File: /get/work/krishna.vardhan/git_trees/mtp_pcie_axi/pcie_axi_dma_latency/design/rtl/axis_fifo.sv Line: 165
Warning: [axis_fifo] FIFO full (depth=256) — upstream back-pressured at t=46445000
Time: 46445 ns  Iteration: 0  Process: /tb_pcie_axi_dma(TB_SCENARIO=2,FIFO_DEPTH=256,BATCH_COUNT=4,BATCH_TIMEOUT=64,SINK_STALL_EN=1'b1,SINK_STALL_PERIOD=4,SINK_STALL_READY=1)/dut/u_fifo/Always163_9  Scope: \tb_pcie_axi_dma(TB_SCENARIO=2,FIFO_DEPTH=256,BATCH_COUNT=4,BATCH_TIMEOUT=64,SINK_STALL_EN=1'b1,SINK_STALL_PERIOD=4,SINK_STALL_READY=1) .dut.u_fifo  File: /get/work/krishna.vardhan/git_trees/mtp_pcie_axi/pcie_axi_dma_latency/design/rtl/axis_fifo.sv Line: 165
Warning: [axis_fifo] FIFO full (depth=256) — upstream back-pressured at t=46455000
Time: 46455 ns  Iteration: 0  Process: /tb_pcie_axi_dma(TB_SCENARIO=2,FIFO_DEPTH=256,BATCH_COUNT=4,BATCH_TIMEOUT=64,SINK_STALL_EN=1'b1,SINK_STALL_PERIOD=4,SINK_STALL_READY=1)/dut/u_fifo/Always163_9  Scope: \tb_pcie_axi_dma(TB_SCENARIO=2,FIFO_DEPTH=256,BATCH_COUNT=4,BATCH_TIMEOUT=64,SINK_STALL_EN=1'b1,SINK_STALL_PERIOD=4,SINK_STALL_READY=1) .dut.u_fifo  File: /get/work/krishna.vardhan/git_trees/mtp_pcie_axi/pcie_axi_dma_latency/design/rtl/axis_fifo.sv Line: 165
Warning: [axis_fifo] FIFO full (depth=256) — upstream back-pressured at t=46475000
Time: 46475 ns  Iteration: 0  Process: /tb_pcie_axi_dma(TB_SCENARIO=2,FIFO_DEPTH=256,BATCH_COUNT=4,BATCH_TIMEOUT=64,SINK_STALL_EN=1'b1,SINK_STALL_PERIOD=4,SINK_STALL_READY=1)/dut/u_fifo/Always163_9  Scope: \tb_pcie_axi_dma(TB_SCENARIO=2,FIFO_DEPTH=256,BATCH_COUNT=4,BATCH_TIMEOUT=64,SINK_STALL_EN=1'b1,SINK_STALL_PERIOD=4,SINK_STALL_READY=1) .dut.u_fifo  File: /get/work/krishna.vardhan/git_trees/mtp_pcie_axi/pcie_axi_dma_latency/design/rtl/axis_fifo.sv Line: 165
Warning: [axis_fifo] FIFO full (depth=256) — upstream back-pressured at t=46485000
Time: 46485 ns  Iteration: 0  Process: /tb_pcie_axi_dma(TB_SCENARIO=2,FIFO_DEPTH=256,BATCH_COUNT=4,BATCH_TIMEOUT=64,SINK_STALL_EN=1'b1,SINK_STALL_PERIOD=4,SINK_STALL_READY=1)/dut/u_fifo/Always163_9  Scope: \tb_pcie_axi_dma(TB_SCENARIO=2,FIFO_DEPTH=256,BATCH_COUNT=4,BATCH_TIMEOUT=64,SINK_STALL_EN=1'b1,SINK_STALL_PERIOD=4,SINK_STALL_READY=1) .dut.u_fifo  File: /get/work/krishna.vardhan/git_trees/mtp_pcie_axi/pcie_axi_dma_latency/design/rtl/axis_fifo.sv Line: 165
Warning: [axis_fifo] FIFO full (depth=256) — upstream back-pressured at t=46495000
Time: 46495 ns  Iteration: 0  Process: /tb_pcie_axi_dma(TB_SCENARIO=2,FIFO_DEPTH=256,BATCH_COUNT=4,BATCH_TIMEOUT=64,SINK_STALL_EN=1'b1,SINK_STALL_PERIOD=4,SINK_STALL_READY=1)/dut/u_fifo/Always163_9  Scope: \tb_pcie_axi_dma(TB_SCENARIO=2,FIFO_DEPTH=256,BATCH_COUNT=4,BATCH_TIMEOUT=64,SINK_STALL_EN=1'b1,SINK_STALL_PERIOD=4,SINK_STALL_READY=1) .dut.u_fifo  File: /get/work/krishna.vardhan/git_trees/mtp_pcie_axi/pcie_axi_dma_latency/design/rtl/axis_fifo.sv Line: 165
Warning: [axis_fifo] FIFO full (depth=256) — upstream back-pressured at t=46515000
Time: 46515 ns  Iteration: 0  Process: /tb_pcie_axi_dma(TB_SCENARIO=2,FIFO_DEPTH=256,BATCH_COUNT=4,BATCH_TIMEOUT=64,SINK_STALL_EN=1'b1,SINK_STALL_PERIOD=4,SINK_STALL_READY=1)/dut/u_fifo/Always163_9  Scope: \tb_pcie_axi_dma(TB_SCENARIO=2,FIFO_DEPTH=256,BATCH_COUNT=4,BATCH_TIMEOUT=64,SINK_STALL_EN=1'b1,SINK_STALL_PERIOD=4,SINK_STALL_READY=1) .dut.u_fifo  File: /get/work/krishna.vardhan/git_trees/mtp_pcie_axi/pcie_axi_dma_latency/design/rtl/axis_fifo.sv Line: 165
Warning: [axis_fifo] FIFO full (depth=256) — upstream back-pressured at t=46525000
Time: 46525 ns  Iteration: 0  Process: /tb_pcie_axi_dma(TB_SCENARIO=2,FIFO_DEPTH=256,BATCH_COUNT=4,BATCH_TIMEOUT=64,SINK_STALL_EN=1'b1,SINK_STALL_PERIOD=4,SINK_STALL_READY=1)/dut/u_fifo/Always163_9  Scope: \tb_pcie_axi_dma(TB_SCENARIO=2,FIFO_DEPTH=256,BATCH_COUNT=4,BATCH_TIMEOUT=64,SINK_STALL_EN=1'b1,SINK_STALL_PERIOD=4,SINK_STALL_READY=1) .dut.u_fifo  File: /get/work/krishna.vardhan/git_trees/mtp_pcie_axi/pcie_axi_dma_latency/design/rtl/axis_fifo.sv Line: 165
Warning: [axis_fifo] FIFO full (depth=256) — upstream back-pressured at t=46535000
Time: 46535 ns  Iteration: 0  Process: /tb_pcie_axi_dma(TB_SCENARIO=2,FIFO_DEPTH=256,BATCH_COUNT=4,BATCH_TIMEOUT=64,SINK_STALL_EN=1'b1,SINK_STALL_PERIOD=4,SINK_STALL_READY=1)/dut/u_fifo/Always163_9  Scope: \tb_pcie_axi_dma(TB_SCENARIO=2,FIFO_DEPTH=256,BATCH_COUNT=4,BATCH_TIMEOUT=64,SINK_STALL_EN=1'b1,SINK_STALL_PERIOD=4,SINK_STALL_READY=1) .dut.u_fifo  File: /get/work/krishna.vardhan/git_trees/mtp_pcie_axi/pcie_axi_dma_latency/design/rtl/axis_fifo.sv Line: 165
Warning: [axis_fifo] FIFO full (depth=256) — upstream back-pressured at t=46555000
Time: 46555 ns  Iteration: 0  Process: /tb_pcie_axi_dma(TB_SCENARIO=2,FIFO_DEPTH=256,BATCH_COUNT=4,BATCH_TIMEOUT=64,SINK_STALL_EN=1'b1,SINK_STALL_PERIOD=4,SINK_STALL_READY=1)/dut/u_fifo/Always163_9  Scope: \tb_pcie_axi_dma(TB_SCENARIO=2,FIFO_DEPTH=256,BATCH_COUNT=4,BATCH_TIMEOUT=64,SINK_STALL_EN=1'b1,SINK_STALL_PERIOD=4,SINK_STALL_READY=1) .dut.u_fifo  File: /get/work/krishna.vardhan/git_trees/mtp_pcie_axi/pcie_axi_dma_latency/design/rtl/axis_fifo.sv Line: 165
Warning: [axis_fifo] FIFO full (depth=256) — upstream back-pressured at t=46565000
Time: 46565 ns  Iteration: 0  Process: /tb_pcie_axi_dma(TB_SCENARIO=2,FIFO_DEPTH=256,BATCH_COUNT=4,BATCH_TIMEOUT=64,SINK_STALL_EN=1'b1,SINK_STALL_PERIOD=4,SINK_STALL_READY=1)/dut/u_fifo/Always163_9  Scope: \tb_pcie_axi_dma(TB_SCENARIO=2,FIFO_DEPTH=256,BATCH_COUNT=4,BATCH_TIMEOUT=64,SINK_STALL_EN=1'b1,SINK_STALL_PERIOD=4,SINK_STALL_READY=1) .dut.u_fifo  File: /get/work/krishna.vardhan/git_trees/mtp_pcie_axi/pcie_axi_dma_latency/design/rtl/axis_fifo.sv Line: 165
Warning: [axis_fifo] FIFO full (depth=256) — upstream back-pressured at t=46575000
Time: 46575 ns  Iteration: 0  Process: /tb_pcie_axi_dma(TB_SCENARIO=2,FIFO_DEPTH=256,BATCH_COUNT=4,BATCH_TIMEOUT=64,SINK_STALL_EN=1'b1,SINK_STALL_PERIOD=4,SINK_STALL_READY=1)/dut/u_fifo/Always163_9  Scope: \tb_pcie_axi_dma(TB_SCENARIO=2,FIFO_DEPTH=256,BATCH_COUNT=4,BATCH_TIMEOUT=64,SINK_STALL_EN=1'b1,SINK_STALL_PERIOD=4,SINK_STALL_READY=1) .dut.u_fifo  File: /get/work/krishna.vardhan/git_trees/mtp_pcie_axi/pcie_axi_dma_latency/design/rtl/axis_fifo.sv Line: 165
Warning: [axis_fifo] FIFO full (depth=256) — upstream back-pressured at t=46595000
Time: 46595 ns  Iteration: 0  Process: /tb_pcie_axi_dma(TB_SCENARIO=2,FIFO_DEPTH=256,BATCH_COUNT=4,BATCH_TIMEOUT=64,SINK_STALL_EN=1'b1,SINK_STALL_PERIOD=4,SINK_STALL_READY=1)/dut/u_fifo/Always163_9  Scope: \tb_pcie_axi_dma(TB_SCENARIO=2,FIFO_DEPTH=256,BATCH_COUNT=4,BATCH_TIMEOUT=64,SINK_STALL_EN=1'b1,SINK_STALL_PERIOD=4,SINK_STALL_READY=1) .dut.u_fifo  File: /get/work/krishna.vardhan/git_trees/mtp_pcie_axi/pcie_axi_dma_latency/design/rtl/axis_fifo.sv Line: 165
Warning: [axis_fifo] FIFO full (depth=256) — upstream back-pressured at t=46605000
Time: 46605 ns  Iteration: 0  Process: /tb_pcie_axi_dma(TB_SCENARIO=2,FIFO_DEPTH=256,BATCH_COUNT=4,BATCH_TIMEOUT=64,SINK_STALL_EN=1'b1,SINK_STALL_PERIOD=4,SINK_STALL_READY=1)/dut/u_fifo/Always163_9  Scope: \tb_pcie_axi_dma(TB_SCENARIO=2,FIFO_DEPTH=256,BATCH_COUNT=4,BATCH_TIMEOUT=64,SINK_STALL_EN=1'b1,SINK_STALL_PERIOD=4,SINK_STALL_READY=1) .dut.u_fifo  File: /get/work/krishna.vardhan/git_trees/mtp_pcie_axi/pcie_axi_dma_latency/design/rtl/axis_fifo.sv Line: 165
Warning: [axis_fifo] FIFO full (depth=256) — upstream back-pressured at t=46615000
Time: 46615 ns  Iteration: 0  Process: /tb_pcie_axi_dma(TB_SCENARIO=2,FIFO_DEPTH=256,BATCH_COUNT=4,BATCH_TIMEOUT=64,SINK_STALL_EN=1'b1,SINK_STALL_PERIOD=4,SINK_STALL_READY=1)/dut/u_fifo/Always163_9  Scope: \tb_pcie_axi_dma(TB_SCENARIO=2,FIFO_DEPTH=256,BATCH_COUNT=4,BATCH_TIMEOUT=64,SINK_STALL_EN=1'b1,SINK_STALL_PERIOD=4,SINK_STALL_READY=1) .dut.u_fifo  File: /get/work/krishna.vardhan/git_trees/mtp_pcie_axi/pcie_axi_dma_latency/design/rtl/axis_fifo.sv Line: 165
Warning: [axis_fifo] FIFO full (depth=256) — upstream back-pressured at t=46635000
Time: 46635 ns  Iteration: 0  Process: /tb_pcie_axi_dma(TB_SCENARIO=2,FIFO_DEPTH=256,BATCH_COUNT=4,BATCH_TIMEOUT=64,SINK_STALL_EN=1'b1,SINK_STALL_PERIOD=4,SINK_STALL_READY=1)/dut/u_fifo/Always163_9  Scope: \tb_pcie_axi_dma(TB_SCENARIO=2,FIFO_DEPTH=256,BATCH_COUNT=4,BATCH_TIMEOUT=64,SINK_STALL_EN=1'b1,SINK_STALL_PERIOD=4,SINK_STALL_READY=1) .dut.u_fifo  File: /get/work/krishna.vardhan/git_trees/mtp_pcie_axi/pcie_axi_dma_latency/design/rtl/axis_fifo.sv Line: 165
Warning: [axis_fifo] FIFO full (depth=256) — upstream back-pressured at t=46645000
Time: 46645 ns  Iteration: 0  Process: /tb_pcie_axi_dma(TB_SCENARIO=2,FIFO_DEPTH=256,BATCH_COUNT=4,BATCH_TIMEOUT=64,SINK_STALL_EN=1'b1,SINK_STALL_PERIOD=4,SINK_STALL_READY=1)/dut/u_fifo/Always163_9  Scope: \tb_pcie_axi_dma(TB_SCENARIO=2,FIFO_DEPTH=256,BATCH_COUNT=4,BATCH_TIMEOUT=64,SINK_STALL_EN=1'b1,SINK_STALL_PERIOD=4,SINK_STALL_READY=1) .dut.u_fifo  File: /get/work/krishna.vardhan/git_trees/mtp_pcie_axi/pcie_axi_dma_latency/design/rtl/axis_fifo.sv Line: 165
Warning: [axis_fifo] FIFO full (depth=256) — upstream back-pressured at t=46655000
Time: 46655 ns  Iteration: 0  Process: /tb_pcie_axi_dma(TB_SCENARIO=2,FIFO_DEPTH=256,BATCH_COUNT=4,BATCH_TIMEOUT=64,SINK_STALL_EN=1'b1,SINK_STALL_PERIOD=4,SINK_STALL_READY=1)/dut/u_fifo/Always163_9  Scope: \tb_pcie_axi_dma(TB_SCENARIO=2,FIFO_DEPTH=256,BATCH_COUNT=4,BATCH_TIMEOUT=64,SINK_STALL_EN=1'b1,SINK_STALL_PERIOD=4,SINK_STALL_READY=1) .dut.u_fifo  File: /get/work/krishna.vardhan/git_trees/mtp_pcie_axi/pcie_axi_dma_latency/design/rtl/axis_fifo.sv Line: 165
Warning: [axis_fifo] FIFO full (depth=256) — upstream back-pressured at t=46675000
Time: 46675 ns  Iteration: 0  Process: /tb_pcie_axi_dma(TB_SCENARIO=2,FIFO_DEPTH=256,BATCH_COUNT=4,BATCH_TIMEOUT=64,SINK_STALL_EN=1'b1,SINK_STALL_PERIOD=4,SINK_STALL_READY=1)/dut/u_fifo/Always163_9  Scope: \tb_pcie_axi_dma(TB_SCENARIO=2,FIFO_DEPTH=256,BATCH_COUNT=4,BATCH_TIMEOUT=64,SINK_STALL_EN=1'b1,SINK_STALL_PERIOD=4,SINK_STALL_READY=1) .dut.u_fifo  File: /get/work/krishna.vardhan/git_trees/mtp_pcie_axi/pcie_axi_dma_latency/design/rtl/axis_fifo.sv Line: 165
Warning: [axis_fifo] FIFO full (depth=256) — upstream back-pressured at t=46685000
Time: 46685 ns  Iteration: 0  Process: /tb_pcie_axi_dma(TB_SCENARIO=2,FIFO_DEPTH=256,BATCH_COUNT=4,BATCH_TIMEOUT=64,SINK_STALL_EN=1'b1,SINK_STALL_PERIOD=4,SINK_STALL_READY=1)/dut/u_fifo/Always163_9  Scope: \tb_pcie_axi_dma(TB_SCENARIO=2,FIFO_DEPTH=256,BATCH_COUNT=4,BATCH_TIMEOUT=64,SINK_STALL_EN=1'b1,SINK_STALL_PERIOD=4,SINK_STALL_READY=1) .dut.u_fifo  File: /get/work/krishna.vardhan/git_trees/mtp_pcie_axi/pcie_axi_dma_latency/design/rtl/axis_fifo.sv Line: 165
Warning: [axis_fifo] FIFO full (depth=256) — upstream back-pressured at t=46695000
Time: 46695 ns  Iteration: 0  Process: /tb_pcie_axi_dma(TB_SCENARIO=2,FIFO_DEPTH=256,BATCH_COUNT=4,BATCH_TIMEOUT=64,SINK_STALL_EN=1'b1,SINK_STALL_PERIOD=4,SINK_STALL_READY=1)/dut/u_fifo/Always163_9  Scope: \tb_pcie_axi_dma(TB_SCENARIO=2,FIFO_DEPTH=256,BATCH_COUNT=4,BATCH_TIMEOUT=64,SINK_STALL_EN=1'b1,SINK_STALL_PERIOD=4,SINK_STALL_READY=1) .dut.u_fifo  File: /get/work/krishna.vardhan/git_trees/mtp_pcie_axi/pcie_axi_dma_latency/design/rtl/axis_fifo.sv Line: 165
Warning: [axis_fifo] FIFO full (depth=256) — upstream back-pressured at t=46715000
Time: 46715 ns  Iteration: 0  Process: /tb_pcie_axi_dma(TB_SCENARIO=2,FIFO_DEPTH=256,BATCH_COUNT=4,BATCH_TIMEOUT=64,SINK_STALL_EN=1'b1,SINK_STALL_PERIOD=4,SINK_STALL_READY=1)/dut/u_fifo/Always163_9  Scope: \tb_pcie_axi_dma(TB_SCENARIO=2,FIFO_DEPTH=256,BATCH_COUNT=4,BATCH_TIMEOUT=64,SINK_STALL_EN=1'b1,SINK_STALL_PERIOD=4,SINK_STALL_READY=1) .dut.u_fifo  File: /get/work/krishna.vardhan/git_trees/mtp_pcie_axi/pcie_axi_dma_latency/design/rtl/axis_fifo.sv Line: 165
Warning: [axis_fifo] FIFO full (depth=256) — upstream back-pressured at t=46725000
Time: 46725 ns  Iteration: 0  Process: /tb_pcie_axi_dma(TB_SCENARIO=2,FIFO_DEPTH=256,BATCH_COUNT=4,BATCH_TIMEOUT=64,SINK_STALL_EN=1'b1,SINK_STALL_PERIOD=4,SINK_STALL_READY=1)/dut/u_fifo/Always163_9  Scope: \tb_pcie_axi_dma(TB_SCENARIO=2,FIFO_DEPTH=256,BATCH_COUNT=4,BATCH_TIMEOUT=64,SINK_STALL_EN=1'b1,SINK_STALL_PERIOD=4,SINK_STALL_READY=1) .dut.u_fifo  File: /get/work/krishna.vardhan/git_trees/mtp_pcie_axi/pcie_axi_dma_latency/design/rtl/axis_fifo.sv Line: 165
Warning: [axis_fifo] FIFO full (depth=256) — upstream back-pressured at t=46735000
Time: 46735 ns  Iteration: 0  Process: /tb_pcie_axi_dma(TB_SCENARIO=2,FIFO_DEPTH=256,BATCH_COUNT=4,BATCH_TIMEOUT=64,SINK_STALL_EN=1'b1,SINK_STALL_PERIOD=4,SINK_STALL_READY=1)/dut/u_fifo/Always163_9  Scope: \tb_pcie_axi_dma(TB_SCENARIO=2,FIFO_DEPTH=256,BATCH_COUNT=4,BATCH_TIMEOUT=64,SINK_STALL_EN=1'b1,SINK_STALL_PERIOD=4,SINK_STALL_READY=1) .dut.u_fifo  File: /get/work/krishna.vardhan/git_trees/mtp_pcie_axi/pcie_axi_dma_latency/design/rtl/axis_fifo.sv Line: 165
Warning: [axis_fifo] FIFO full (depth=256) — upstream back-pressured at t=46755000
Time: 46755 ns  Iteration: 0  Process: /tb_pcie_axi_dma(TB_SCENARIO=2,FIFO_DEPTH=256,BATCH_COUNT=4,BATCH_TIMEOUT=64,SINK_STALL_EN=1'b1,SINK_STALL_PERIOD=4,SINK_STALL_READY=1)/dut/u_fifo/Always163_9  Scope: \tb_pcie_axi_dma(TB_SCENARIO=2,FIFO_DEPTH=256,BATCH_COUNT=4,BATCH_TIMEOUT=64,SINK_STALL_EN=1'b1,SINK_STALL_PERIOD=4,SINK_STALL_READY=1) .dut.u_fifo  File: /get/work/krishna.vardhan/git_trees/mtp_pcie_axi/pcie_axi_dma_latency/design/rtl/axis_fifo.sv Line: 165
Warning: [axis_fifo] FIFO full (depth=256) — upstream back-pressured at t=46765000
Time: 46765 ns  Iteration: 0  Process: /tb_pcie_axi_dma(TB_SCENARIO=2,FIFO_DEPTH=256,BATCH_COUNT=4,BATCH_TIMEOUT=64,SINK_STALL_EN=1'b1,SINK_STALL_PERIOD=4,SINK_STALL_READY=1)/dut/u_fifo/Always163_9  Scope: \tb_pcie_axi_dma(TB_SCENARIO=2,FIFO_DEPTH=256,BATCH_COUNT=4,BATCH_TIMEOUT=64,SINK_STALL_EN=1'b1,SINK_STALL_PERIOD=4,SINK_STALL_READY=1) .dut.u_fifo  File: /get/work/krishna.vardhan/git_trees/mtp_pcie_axi/pcie_axi_dma_latency/design/rtl/axis_fifo.sv Line: 165
Warning: [axis_fifo] FIFO full (depth=256) — upstream back-pressured at t=46775000
Time: 46775 ns  Iteration: 0  Process: /tb_pcie_axi_dma(TB_SCENARIO=2,FIFO_DEPTH=256,BATCH_COUNT=4,BATCH_TIMEOUT=64,SINK_STALL_EN=1'b1,SINK_STALL_PERIOD=4,SINK_STALL_READY=1)/dut/u_fifo/Always163_9  Scope: \tb_pcie_axi_dma(TB_SCENARIO=2,FIFO_DEPTH=256,BATCH_COUNT=4,BATCH_TIMEOUT=64,SINK_STALL_EN=1'b1,SINK_STALL_PERIOD=4,SINK_STALL_READY=1) .dut.u_fifo  File: /get/work/krishna.vardhan/git_trees/mtp_pcie_axi/pcie_axi_dma_latency/design/rtl/axis_fifo.sv Line: 165
Warning: [axis_fifo] FIFO full (depth=256) — upstream back-pressured at t=46795000
Time: 46795 ns  Iteration: 0  Process: /tb_pcie_axi_dma(TB_SCENARIO=2,FIFO_DEPTH=256,BATCH_COUNT=4,BATCH_TIMEOUT=64,SINK_STALL_EN=1'b1,SINK_STALL_PERIOD=4,SINK_STALL_READY=1)/dut/u_fifo/Always163_9  Scope: \tb_pcie_axi_dma(TB_SCENARIO=2,FIFO_DEPTH=256,BATCH_COUNT=4,BATCH_TIMEOUT=64,SINK_STALL_EN=1'b1,SINK_STALL_PERIOD=4,SINK_STALL_READY=1) .dut.u_fifo  File: /get/work/krishna.vardhan/git_trees/mtp_pcie_axi/pcie_axi_dma_latency/design/rtl/axis_fifo.sv Line: 165
Warning: [axis_fifo] FIFO full (depth=256) — upstream back-pressured at t=46805000
Time: 46805 ns  Iteration: 0  Process: /tb_pcie_axi_dma(TB_SCENARIO=2,FIFO_DEPTH=256,BATCH_COUNT=4,BATCH_TIMEOUT=64,SINK_STALL_EN=1'b1,SINK_STALL_PERIOD=4,SINK_STALL_READY=1)/dut/u_fifo/Always163_9  Scope: \tb_pcie_axi_dma(TB_SCENARIO=2,FIFO_DEPTH=256,BATCH_COUNT=4,BATCH_TIMEOUT=64,SINK_STALL_EN=1'b1,SINK_STALL_PERIOD=4,SINK_STALL_READY=1) .dut.u_fifo  File: /get/work/krishna.vardhan/git_trees/mtp_pcie_axi/pcie_axi_dma_latency/design/rtl/axis_fifo.sv Line: 165
Warning: [axis_fifo] FIFO full (depth=256) — upstream back-pressured at t=46815000
Time: 46815 ns  Iteration: 0  Process: /tb_pcie_axi_dma(TB_SCENARIO=2,FIFO_DEPTH=256,BATCH_COUNT=4,BATCH_TIMEOUT=64,SINK_STALL_EN=1'b1,SINK_STALL_PERIOD=4,SINK_STALL_READY=1)/dut/u_fifo/Always163_9  Scope: \tb_pcie_axi_dma(TB_SCENARIO=2,FIFO_DEPTH=256,BATCH_COUNT=4,BATCH_TIMEOUT=64,SINK_STALL_EN=1'b1,SINK_STALL_PERIOD=4,SINK_STALL_READY=1) .dut.u_fifo  File: /get/work/krishna.vardhan/git_trees/mtp_pcie_axi/pcie_axi_dma_latency/design/rtl/axis_fifo.sv Line: 165
Warning: [axis_fifo] FIFO full (depth=256) — upstream back-pressured at t=46835000
Time: 46835 ns  Iteration: 0  Process: /tb_pcie_axi_dma(TB_SCENARIO=2,FIFO_DEPTH=256,BATCH_COUNT=4,BATCH_TIMEOUT=64,SINK_STALL_EN=1'b1,SINK_STALL_PERIOD=4,SINK_STALL_READY=1)/dut/u_fifo/Always163_9  Scope: \tb_pcie_axi_dma(TB_SCENARIO=2,FIFO_DEPTH=256,BATCH_COUNT=4,BATCH_TIMEOUT=64,SINK_STALL_EN=1'b1,SINK_STALL_PERIOD=4,SINK_STALL_READY=1) .dut.u_fifo  File: /get/work/krishna.vardhan/git_trees/mtp_pcie_axi/pcie_axi_dma_latency/design/rtl/axis_fifo.sv Line: 165
Warning: [axis_fifo] FIFO full (depth=256) — upstream back-pressured at t=46845000
Time: 46845 ns  Iteration: 0  Process: /tb_pcie_axi_dma(TB_SCENARIO=2,FIFO_DEPTH=256,BATCH_COUNT=4,BATCH_TIMEOUT=64,SINK_STALL_EN=1'b1,SINK_STALL_PERIOD=4,SINK_STALL_READY=1)/dut/u_fifo/Always163_9  Scope: \tb_pcie_axi_dma(TB_SCENARIO=2,FIFO_DEPTH=256,BATCH_COUNT=4,BATCH_TIMEOUT=64,SINK_STALL_EN=1'b1,SINK_STALL_PERIOD=4,SINK_STALL_READY=1) .dut.u_fifo  File: /get/work/krishna.vardhan/git_trees/mtp_pcie_axi/pcie_axi_dma_latency/design/rtl/axis_fifo.sv Line: 165
Warning: [axis_fifo] FIFO full (depth=256) — upstream back-pressured at t=46855000
Time: 46855 ns  Iteration: 0  Process: /tb_pcie_axi_dma(TB_SCENARIO=2,FIFO_DEPTH=256,BATCH_COUNT=4,BATCH_TIMEOUT=64,SINK_STALL_EN=1'b1,SINK_STALL_PERIOD=4,SINK_STALL_READY=1)/dut/u_fifo/Always163_9  Scope: \tb_pcie_axi_dma(TB_SCENARIO=2,FIFO_DEPTH=256,BATCH_COUNT=4,BATCH_TIMEOUT=64,SINK_STALL_EN=1'b1,SINK_STALL_PERIOD=4,SINK_STALL_READY=1) .dut.u_fifo  File: /get/work/krishna.vardhan/git_trees/mtp_pcie_axi/pcie_axi_dma_latency/design/rtl/axis_fifo.sv Line: 165
Warning: [axis_fifo] FIFO full (depth=256) — upstream back-pressured at t=46875000
Time: 46875 ns  Iteration: 0  Process: /tb_pcie_axi_dma(TB_SCENARIO=2,FIFO_DEPTH=256,BATCH_COUNT=4,BATCH_TIMEOUT=64,SINK_STALL_EN=1'b1,SINK_STALL_PERIOD=4,SINK_STALL_READY=1)/dut/u_fifo/Always163_9  Scope: \tb_pcie_axi_dma(TB_SCENARIO=2,FIFO_DEPTH=256,BATCH_COUNT=4,BATCH_TIMEOUT=64,SINK_STALL_EN=1'b1,SINK_STALL_PERIOD=4,SINK_STALL_READY=1) .dut.u_fifo  File: /get/work/krishna.vardhan/git_trees/mtp_pcie_axi/pcie_axi_dma_latency/design/rtl/axis_fifo.sv Line: 165
Warning: [axis_fifo] FIFO full (depth=256) — upstream back-pressured at t=46885000
Time: 46885 ns  Iteration: 0  Process: /tb_pcie_axi_dma(TB_SCENARIO=2,FIFO_DEPTH=256,BATCH_COUNT=4,BATCH_TIMEOUT=64,SINK_STALL_EN=1'b1,SINK_STALL_PERIOD=4,SINK_STALL_READY=1)/dut/u_fifo/Always163_9  Scope: \tb_pcie_axi_dma(TB_SCENARIO=2,FIFO_DEPTH=256,BATCH_COUNT=4,BATCH_TIMEOUT=64,SINK_STALL_EN=1'b1,SINK_STALL_PERIOD=4,SINK_STALL_READY=1) .dut.u_fifo  File: /get/work/krishna.vardhan/git_trees/mtp_pcie_axi/pcie_axi_dma_latency/design/rtl/axis_fifo.sv Line: 165
Warning: [axis_fifo] FIFO full (depth=256) — upstream back-pressured at t=46895000
Time: 46895 ns  Iteration: 0  Process: /tb_pcie_axi_dma(TB_SCENARIO=2,FIFO_DEPTH=256,BATCH_COUNT=4,BATCH_TIMEOUT=64,SINK_STALL_EN=1'b1,SINK_STALL_PERIOD=4,SINK_STALL_READY=1)/dut/u_fifo/Always163_9  Scope: \tb_pcie_axi_dma(TB_SCENARIO=2,FIFO_DEPTH=256,BATCH_COUNT=4,BATCH_TIMEOUT=64,SINK_STALL_EN=1'b1,SINK_STALL_PERIOD=4,SINK_STALL_READY=1) .dut.u_fifo  File: /get/work/krishna.vardhan/git_trees/mtp_pcie_axi/pcie_axi_dma_latency/design/rtl/axis_fifo.sv Line: 165
Warning: [axis_fifo] FIFO full (depth=256) — upstream back-pressured at t=46915000
Time: 46915 ns  Iteration: 0  Process: /tb_pcie_axi_dma(TB_SCENARIO=2,FIFO_DEPTH=256,BATCH_COUNT=4,BATCH_TIMEOUT=64,SINK_STALL_EN=1'b1,SINK_STALL_PERIOD=4,SINK_STALL_READY=1)/dut/u_fifo/Always163_9  Scope: \tb_pcie_axi_dma(TB_SCENARIO=2,FIFO_DEPTH=256,BATCH_COUNT=4,BATCH_TIMEOUT=64,SINK_STALL_EN=1'b1,SINK_STALL_PERIOD=4,SINK_STALL_READY=1) .dut.u_fifo  File: /get/work/krishna.vardhan/git_trees/mtp_pcie_axi/pcie_axi_dma_latency/design/rtl/axis_fifo.sv Line: 165
Warning: [axis_fifo] FIFO full (depth=256) — upstream back-pressured at t=46925000
Time: 46925 ns  Iteration: 0  Process: /tb_pcie_axi_dma(TB_SCENARIO=2,FIFO_DEPTH=256,BATCH_COUNT=4,BATCH_TIMEOUT=64,SINK_STALL_EN=1'b1,SINK_STALL_PERIOD=4,SINK_STALL_READY=1)/dut/u_fifo/Always163_9  Scope: \tb_pcie_axi_dma(TB_SCENARIO=2,FIFO_DEPTH=256,BATCH_COUNT=4,BATCH_TIMEOUT=64,SINK_STALL_EN=1'b1,SINK_STALL_PERIOD=4,SINK_STALL_READY=1) .dut.u_fifo  File: /get/work/krishna.vardhan/git_trees/mtp_pcie_axi/pcie_axi_dma_latency/design/rtl/axis_fifo.sv Line: 165
Warning: [axis_fifo] FIFO full (depth=256) — upstream back-pressured at t=46935000
Time: 46935 ns  Iteration: 0  Process: /tb_pcie_axi_dma(TB_SCENARIO=2,FIFO_DEPTH=256,BATCH_COUNT=4,BATCH_TIMEOUT=64,SINK_STALL_EN=1'b1,SINK_STALL_PERIOD=4,SINK_STALL_READY=1)/dut/u_fifo/Always163_9  Scope: \tb_pcie_axi_dma(TB_SCENARIO=2,FIFO_DEPTH=256,BATCH_COUNT=4,BATCH_TIMEOUT=64,SINK_STALL_EN=1'b1,SINK_STALL_PERIOD=4,SINK_STALL_READY=1) .dut.u_fifo  File: /get/work/krishna.vardhan/git_trees/mtp_pcie_axi/pcie_axi_dma_latency/design/rtl/axis_fifo.sv Line: 165
Warning: [axis_fifo] FIFO full (depth=256) — upstream back-pressured at t=46955000
Time: 46955 ns  Iteration: 0  Process: /tb_pcie_axi_dma(TB_SCENARIO=2,FIFO_DEPTH=256,BATCH_COUNT=4,BATCH_TIMEOUT=64,SINK_STALL_EN=1'b1,SINK_STALL_PERIOD=4,SINK_STALL_READY=1)/dut/u_fifo/Always163_9  Scope: \tb_pcie_axi_dma(TB_SCENARIO=2,FIFO_DEPTH=256,BATCH_COUNT=4,BATCH_TIMEOUT=64,SINK_STALL_EN=1'b1,SINK_STALL_PERIOD=4,SINK_STALL_READY=1) .dut.u_fifo  File: /get/work/krishna.vardhan/git_trees/mtp_pcie_axi/pcie_axi_dma_latency/design/rtl/axis_fifo.sv Line: 165
Warning: [axis_fifo] FIFO full (depth=256) — upstream back-pressured at t=46965000
Time: 46965 ns  Iteration: 0  Process: /tb_pcie_axi_dma(TB_SCENARIO=2,FIFO_DEPTH=256,BATCH_COUNT=4,BATCH_TIMEOUT=64,SINK_STALL_EN=1'b1,SINK_STALL_PERIOD=4,SINK_STALL_READY=1)/dut/u_fifo/Always163_9  Scope: \tb_pcie_axi_dma(TB_SCENARIO=2,FIFO_DEPTH=256,BATCH_COUNT=4,BATCH_TIMEOUT=64,SINK_STALL_EN=1'b1,SINK_STALL_PERIOD=4,SINK_STALL_READY=1) .dut.u_fifo  File: /get/work/krishna.vardhan/git_trees/mtp_pcie_axi/pcie_axi_dma_latency/design/rtl/axis_fifo.sv Line: 165
Warning: [axis_fifo] FIFO full (depth=256) — upstream back-pressured at t=46975000
Time: 46975 ns  Iteration: 0  Process: /tb_pcie_axi_dma(TB_SCENARIO=2,FIFO_DEPTH=256,BATCH_COUNT=4,BATCH_TIMEOUT=64,SINK_STALL_EN=1'b1,SINK_STALL_PERIOD=4,SINK_STALL_READY=1)/dut/u_fifo/Always163_9  Scope: \tb_pcie_axi_dma(TB_SCENARIO=2,FIFO_DEPTH=256,BATCH_COUNT=4,BATCH_TIMEOUT=64,SINK_STALL_EN=1'b1,SINK_STALL_PERIOD=4,SINK_STALL_READY=1) .dut.u_fifo  File: /get/work/krishna.vardhan/git_trees/mtp_pcie_axi/pcie_axi_dma_latency/design/rtl/axis_fifo.sv Line: 165
Warning: [axis_fifo] FIFO full (depth=256) — upstream back-pressured at t=46995000
Time: 46995 ns  Iteration: 0  Process: /tb_pcie_axi_dma(TB_SCENARIO=2,FIFO_DEPTH=256,BATCH_COUNT=4,BATCH_TIMEOUT=64,SINK_STALL_EN=1'b1,SINK_STALL_PERIOD=4,SINK_STALL_READY=1)/dut/u_fifo/Always163_9  Scope: \tb_pcie_axi_dma(TB_SCENARIO=2,FIFO_DEPTH=256,BATCH_COUNT=4,BATCH_TIMEOUT=64,SINK_STALL_EN=1'b1,SINK_STALL_PERIOD=4,SINK_STALL_READY=1) .dut.u_fifo  File: /get/work/krishna.vardhan/git_trees/mtp_pcie_axi/pcie_axi_dma_latency/design/rtl/axis_fifo.sv Line: 165
Warning: [axis_fifo] FIFO full (depth=256) — upstream back-pressured at t=47005000
Time: 47005 ns  Iteration: 0  Process: /tb_pcie_axi_dma(TB_SCENARIO=2,FIFO_DEPTH=256,BATCH_COUNT=4,BATCH_TIMEOUT=64,SINK_STALL_EN=1'b1,SINK_STALL_PERIOD=4,SINK_STALL_READY=1)/dut/u_fifo/Always163_9  Scope: \tb_pcie_axi_dma(TB_SCENARIO=2,FIFO_DEPTH=256,BATCH_COUNT=4,BATCH_TIMEOUT=64,SINK_STALL_EN=1'b1,SINK_STALL_PERIOD=4,SINK_STALL_READY=1) .dut.u_fifo  File: /get/work/krishna.vardhan/git_trees/mtp_pcie_axi/pcie_axi_dma_latency/design/rtl/axis_fifo.sv Line: 165
Warning: [axis_fifo] FIFO full (depth=256) — upstream back-pressured at t=47015000
Time: 47015 ns  Iteration: 0  Process: /tb_pcie_axi_dma(TB_SCENARIO=2,FIFO_DEPTH=256,BATCH_COUNT=4,BATCH_TIMEOUT=64,SINK_STALL_EN=1'b1,SINK_STALL_PERIOD=4,SINK_STALL_READY=1)/dut/u_fifo/Always163_9  Scope: \tb_pcie_axi_dma(TB_SCENARIO=2,FIFO_DEPTH=256,BATCH_COUNT=4,BATCH_TIMEOUT=64,SINK_STALL_EN=1'b1,SINK_STALL_PERIOD=4,SINK_STALL_READY=1) .dut.u_fifo  File: /get/work/krishna.vardhan/git_trees/mtp_pcie_axi/pcie_axi_dma_latency/design/rtl/axis_fifo.sv Line: 165
Warning: [axis_fifo] FIFO full (depth=256) — upstream back-pressured at t=47035000
Time: 47035 ns  Iteration: 0  Process: /tb_pcie_axi_dma(TB_SCENARIO=2,FIFO_DEPTH=256,BATCH_COUNT=4,BATCH_TIMEOUT=64,SINK_STALL_EN=1'b1,SINK_STALL_PERIOD=4,SINK_STALL_READY=1)/dut/u_fifo/Always163_9  Scope: \tb_pcie_axi_dma(TB_SCENARIO=2,FIFO_DEPTH=256,BATCH_COUNT=4,BATCH_TIMEOUT=64,SINK_STALL_EN=1'b1,SINK_STALL_PERIOD=4,SINK_STALL_READY=1) .dut.u_fifo  File: /get/work/krishna.vardhan/git_trees/mtp_pcie_axi/pcie_axi_dma_latency/design/rtl/axis_fifo.sv Line: 165
Warning: [axis_fifo] FIFO full (depth=256) — upstream back-pressured at t=47045000
Time: 47045 ns  Iteration: 0  Process: /tb_pcie_axi_dma(TB_SCENARIO=2,FIFO_DEPTH=256,BATCH_COUNT=4,BATCH_TIMEOUT=64,SINK_STALL_EN=1'b1,SINK_STALL_PERIOD=4,SINK_STALL_READY=1)/dut/u_fifo/Always163_9  Scope: \tb_pcie_axi_dma(TB_SCENARIO=2,FIFO_DEPTH=256,BATCH_COUNT=4,BATCH_TIMEOUT=64,SINK_STALL_EN=1'b1,SINK_STALL_PERIOD=4,SINK_STALL_READY=1) .dut.u_fifo  File: /get/work/krishna.vardhan/git_trees/mtp_pcie_axi/pcie_axi_dma_latency/design/rtl/axis_fifo.sv Line: 165
Warning: [axis_fifo] FIFO full (depth=256) — upstream back-pressured at t=47055000
Time: 47055 ns  Iteration: 0  Process: /tb_pcie_axi_dma(TB_SCENARIO=2,FIFO_DEPTH=256,BATCH_COUNT=4,BATCH_TIMEOUT=64,SINK_STALL_EN=1'b1,SINK_STALL_PERIOD=4,SINK_STALL_READY=1)/dut/u_fifo/Always163_9  Scope: \tb_pcie_axi_dma(TB_SCENARIO=2,FIFO_DEPTH=256,BATCH_COUNT=4,BATCH_TIMEOUT=64,SINK_STALL_EN=1'b1,SINK_STALL_PERIOD=4,SINK_STALL_READY=1) .dut.u_fifo  File: /get/work/krishna.vardhan/git_trees/mtp_pcie_axi/pcie_axi_dma_latency/design/rtl/axis_fifo.sv Line: 165
Warning: [axis_fifo] FIFO full (depth=256) — upstream back-pressured at t=47075000
Time: 47075 ns  Iteration: 0  Process: /tb_pcie_axi_dma(TB_SCENARIO=2,FIFO_DEPTH=256,BATCH_COUNT=4,BATCH_TIMEOUT=64,SINK_STALL_EN=1'b1,SINK_STALL_PERIOD=4,SINK_STALL_READY=1)/dut/u_fifo/Always163_9  Scope: \tb_pcie_axi_dma(TB_SCENARIO=2,FIFO_DEPTH=256,BATCH_COUNT=4,BATCH_TIMEOUT=64,SINK_STALL_EN=1'b1,SINK_STALL_PERIOD=4,SINK_STALL_READY=1) .dut.u_fifo  File: /get/work/krishna.vardhan/git_trees/mtp_pcie_axi/pcie_axi_dma_latency/design/rtl/axis_fifo.sv Line: 165
Warning: [axis_fifo] FIFO full (depth=256) — upstream back-pressured at t=47085000
Time: 47085 ns  Iteration: 0  Process: /tb_pcie_axi_dma(TB_SCENARIO=2,FIFO_DEPTH=256,BATCH_COUNT=4,BATCH_TIMEOUT=64,SINK_STALL_EN=1'b1,SINK_STALL_PERIOD=4,SINK_STALL_READY=1)/dut/u_fifo/Always163_9  Scope: \tb_pcie_axi_dma(TB_SCENARIO=2,FIFO_DEPTH=256,BATCH_COUNT=4,BATCH_TIMEOUT=64,SINK_STALL_EN=1'b1,SINK_STALL_PERIOD=4,SINK_STALL_READY=1) .dut.u_fifo  File: /get/work/krishna.vardhan/git_trees/mtp_pcie_axi/pcie_axi_dma_latency/design/rtl/axis_fifo.sv Line: 165
Warning: [axis_fifo] FIFO full (depth=256) — upstream back-pressured at t=47095000
Time: 47095 ns  Iteration: 0  Process: /tb_pcie_axi_dma(TB_SCENARIO=2,FIFO_DEPTH=256,BATCH_COUNT=4,BATCH_TIMEOUT=64,SINK_STALL_EN=1'b1,SINK_STALL_PERIOD=4,SINK_STALL_READY=1)/dut/u_fifo/Always163_9  Scope: \tb_pcie_axi_dma(TB_SCENARIO=2,FIFO_DEPTH=256,BATCH_COUNT=4,BATCH_TIMEOUT=64,SINK_STALL_EN=1'b1,SINK_STALL_PERIOD=4,SINK_STALL_READY=1) .dut.u_fifo  File: /get/work/krishna.vardhan/git_trees/mtp_pcie_axi/pcie_axi_dma_latency/design/rtl/axis_fifo.sv Line: 165
Warning: [axis_fifo] FIFO full (depth=256) — upstream back-pressured at t=47115000
Time: 47115 ns  Iteration: 0  Process: /tb_pcie_axi_dma(TB_SCENARIO=2,FIFO_DEPTH=256,BATCH_COUNT=4,BATCH_TIMEOUT=64,SINK_STALL_EN=1'b1,SINK_STALL_PERIOD=4,SINK_STALL_READY=1)/dut/u_fifo/Always163_9  Scope: \tb_pcie_axi_dma(TB_SCENARIO=2,FIFO_DEPTH=256,BATCH_COUNT=4,BATCH_TIMEOUT=64,SINK_STALL_EN=1'b1,SINK_STALL_PERIOD=4,SINK_STALL_READY=1) .dut.u_fifo  File: /get/work/krishna.vardhan/git_trees/mtp_pcie_axi/pcie_axi_dma_latency/design/rtl/axis_fifo.sv Line: 165
Warning: [axis_fifo] FIFO full (depth=256) — upstream back-pressured at t=47125000
Time: 47125 ns  Iteration: 0  Process: /tb_pcie_axi_dma(TB_SCENARIO=2,FIFO_DEPTH=256,BATCH_COUNT=4,BATCH_TIMEOUT=64,SINK_STALL_EN=1'b1,SINK_STALL_PERIOD=4,SINK_STALL_READY=1)/dut/u_fifo/Always163_9  Scope: \tb_pcie_axi_dma(TB_SCENARIO=2,FIFO_DEPTH=256,BATCH_COUNT=4,BATCH_TIMEOUT=64,SINK_STALL_EN=1'b1,SINK_STALL_PERIOD=4,SINK_STALL_READY=1) .dut.u_fifo  File: /get/work/krishna.vardhan/git_trees/mtp_pcie_axi/pcie_axi_dma_latency/design/rtl/axis_fifo.sv Line: 165
Warning: [axis_fifo] FIFO full (depth=256) — upstream back-pressured at t=47135000
Time: 47135 ns  Iteration: 0  Process: /tb_pcie_axi_dma(TB_SCENARIO=2,FIFO_DEPTH=256,BATCH_COUNT=4,BATCH_TIMEOUT=64,SINK_STALL_EN=1'b1,SINK_STALL_PERIOD=4,SINK_STALL_READY=1)/dut/u_fifo/Always163_9  Scope: \tb_pcie_axi_dma(TB_SCENARIO=2,FIFO_DEPTH=256,BATCH_COUNT=4,BATCH_TIMEOUT=64,SINK_STALL_EN=1'b1,SINK_STALL_PERIOD=4,SINK_STALL_READY=1) .dut.u_fifo  File: /get/work/krishna.vardhan/git_trees/mtp_pcie_axi/pcie_axi_dma_latency/design/rtl/axis_fifo.sv Line: 165
Warning: [axis_fifo] FIFO full (depth=256) — upstream back-pressured at t=47155000
Time: 47155 ns  Iteration: 0  Process: /tb_pcie_axi_dma(TB_SCENARIO=2,FIFO_DEPTH=256,BATCH_COUNT=4,BATCH_TIMEOUT=64,SINK_STALL_EN=1'b1,SINK_STALL_PERIOD=4,SINK_STALL_READY=1)/dut/u_fifo/Always163_9  Scope: \tb_pcie_axi_dma(TB_SCENARIO=2,FIFO_DEPTH=256,BATCH_COUNT=4,BATCH_TIMEOUT=64,SINK_STALL_EN=1'b1,SINK_STALL_PERIOD=4,SINK_STALL_READY=1) .dut.u_fifo  File: /get/work/krishna.vardhan/git_trees/mtp_pcie_axi/pcie_axi_dma_latency/design/rtl/axis_fifo.sv Line: 165
Warning: [axis_fifo] FIFO full (depth=256) — upstream back-pressured at t=47165000
Time: 47165 ns  Iteration: 0  Process: /tb_pcie_axi_dma(TB_SCENARIO=2,FIFO_DEPTH=256,BATCH_COUNT=4,BATCH_TIMEOUT=64,SINK_STALL_EN=1'b1,SINK_STALL_PERIOD=4,SINK_STALL_READY=1)/dut/u_fifo/Always163_9  Scope: \tb_pcie_axi_dma(TB_SCENARIO=2,FIFO_DEPTH=256,BATCH_COUNT=4,BATCH_TIMEOUT=64,SINK_STALL_EN=1'b1,SINK_STALL_PERIOD=4,SINK_STALL_READY=1) .dut.u_fifo  File: /get/work/krishna.vardhan/git_trees/mtp_pcie_axi/pcie_axi_dma_latency/design/rtl/axis_fifo.sv Line: 165
Warning: [axis_fifo] FIFO full (depth=256) — upstream back-pressured at t=47175000
Time: 47175 ns  Iteration: 0  Process: /tb_pcie_axi_dma(TB_SCENARIO=2,FIFO_DEPTH=256,BATCH_COUNT=4,BATCH_TIMEOUT=64,SINK_STALL_EN=1'b1,SINK_STALL_PERIOD=4,SINK_STALL_READY=1)/dut/u_fifo/Always163_9  Scope: \tb_pcie_axi_dma(TB_SCENARIO=2,FIFO_DEPTH=256,BATCH_COUNT=4,BATCH_TIMEOUT=64,SINK_STALL_EN=1'b1,SINK_STALL_PERIOD=4,SINK_STALL_READY=1) .dut.u_fifo  File: /get/work/krishna.vardhan/git_trees/mtp_pcie_axi/pcie_axi_dma_latency/design/rtl/axis_fifo.sv Line: 165
Warning: [axis_fifo] FIFO full (depth=256) — upstream back-pressured at t=47195000
Time: 47195 ns  Iteration: 0  Process: /tb_pcie_axi_dma(TB_SCENARIO=2,FIFO_DEPTH=256,BATCH_COUNT=4,BATCH_TIMEOUT=64,SINK_STALL_EN=1'b1,SINK_STALL_PERIOD=4,SINK_STALL_READY=1)/dut/u_fifo/Always163_9  Scope: \tb_pcie_axi_dma(TB_SCENARIO=2,FIFO_DEPTH=256,BATCH_COUNT=4,BATCH_TIMEOUT=64,SINK_STALL_EN=1'b1,SINK_STALL_PERIOD=4,SINK_STALL_READY=1) .dut.u_fifo  File: /get/work/krishna.vardhan/git_trees/mtp_pcie_axi/pcie_axi_dma_latency/design/rtl/axis_fifo.sv Line: 165
Warning: [axis_fifo] FIFO full (depth=256) — upstream back-pressured at t=47205000
Time: 47205 ns  Iteration: 0  Process: /tb_pcie_axi_dma(TB_SCENARIO=2,FIFO_DEPTH=256,BATCH_COUNT=4,BATCH_TIMEOUT=64,SINK_STALL_EN=1'b1,SINK_STALL_PERIOD=4,SINK_STALL_READY=1)/dut/u_fifo/Always163_9  Scope: \tb_pcie_axi_dma(TB_SCENARIO=2,FIFO_DEPTH=256,BATCH_COUNT=4,BATCH_TIMEOUT=64,SINK_STALL_EN=1'b1,SINK_STALL_PERIOD=4,SINK_STALL_READY=1) .dut.u_fifo  File: /get/work/krishna.vardhan/git_trees/mtp_pcie_axi/pcie_axi_dma_latency/design/rtl/axis_fifo.sv Line: 165
Warning: [axis_fifo] FIFO full (depth=256) — upstream back-pressured at t=47215000
Time: 47215 ns  Iteration: 0  Process: /tb_pcie_axi_dma(TB_SCENARIO=2,FIFO_DEPTH=256,BATCH_COUNT=4,BATCH_TIMEOUT=64,SINK_STALL_EN=1'b1,SINK_STALL_PERIOD=4,SINK_STALL_READY=1)/dut/u_fifo/Always163_9  Scope: \tb_pcie_axi_dma(TB_SCENARIO=2,FIFO_DEPTH=256,BATCH_COUNT=4,BATCH_TIMEOUT=64,SINK_STALL_EN=1'b1,SINK_STALL_PERIOD=4,SINK_STALL_READY=1) .dut.u_fifo  File: /get/work/krishna.vardhan/git_trees/mtp_pcie_axi/pcie_axi_dma_latency/design/rtl/axis_fifo.sv Line: 165
Warning: [axis_fifo] FIFO full (depth=256) — upstream back-pressured at t=47235000
Time: 47235 ns  Iteration: 0  Process: /tb_pcie_axi_dma(TB_SCENARIO=2,FIFO_DEPTH=256,BATCH_COUNT=4,BATCH_TIMEOUT=64,SINK_STALL_EN=1'b1,SINK_STALL_PERIOD=4,SINK_STALL_READY=1)/dut/u_fifo/Always163_9  Scope: \tb_pcie_axi_dma(TB_SCENARIO=2,FIFO_DEPTH=256,BATCH_COUNT=4,BATCH_TIMEOUT=64,SINK_STALL_EN=1'b1,SINK_STALL_PERIOD=4,SINK_STALL_READY=1) .dut.u_fifo  File: /get/work/krishna.vardhan/git_trees/mtp_pcie_axi/pcie_axi_dma_latency/design/rtl/axis_fifo.sv Line: 165
Warning: [axis_fifo] FIFO full (depth=256) — upstream back-pressured at t=47245000
Time: 47245 ns  Iteration: 0  Process: /tb_pcie_axi_dma(TB_SCENARIO=2,FIFO_DEPTH=256,BATCH_COUNT=4,BATCH_TIMEOUT=64,SINK_STALL_EN=1'b1,SINK_STALL_PERIOD=4,SINK_STALL_READY=1)/dut/u_fifo/Always163_9  Scope: \tb_pcie_axi_dma(TB_SCENARIO=2,FIFO_DEPTH=256,BATCH_COUNT=4,BATCH_TIMEOUT=64,SINK_STALL_EN=1'b1,SINK_STALL_PERIOD=4,SINK_STALL_READY=1) .dut.u_fifo  File: /get/work/krishna.vardhan/git_trees/mtp_pcie_axi/pcie_axi_dma_latency/design/rtl/axis_fifo.sv Line: 165
Warning: [axis_fifo] FIFO full (depth=256) — upstream back-pressured at t=47255000
Time: 47255 ns  Iteration: 0  Process: /tb_pcie_axi_dma(TB_SCENARIO=2,FIFO_DEPTH=256,BATCH_COUNT=4,BATCH_TIMEOUT=64,SINK_STALL_EN=1'b1,SINK_STALL_PERIOD=4,SINK_STALL_READY=1)/dut/u_fifo/Always163_9  Scope: \tb_pcie_axi_dma(TB_SCENARIO=2,FIFO_DEPTH=256,BATCH_COUNT=4,BATCH_TIMEOUT=64,SINK_STALL_EN=1'b1,SINK_STALL_PERIOD=4,SINK_STALL_READY=1) .dut.u_fifo  File: /get/work/krishna.vardhan/git_trees/mtp_pcie_axi/pcie_axi_dma_latency/design/rtl/axis_fifo.sv Line: 165
Warning: [axis_fifo] FIFO full (depth=256) — upstream back-pressured at t=47275000
Time: 47275 ns  Iteration: 0  Process: /tb_pcie_axi_dma(TB_SCENARIO=2,FIFO_DEPTH=256,BATCH_COUNT=4,BATCH_TIMEOUT=64,SINK_STALL_EN=1'b1,SINK_STALL_PERIOD=4,SINK_STALL_READY=1)/dut/u_fifo/Always163_9  Scope: \tb_pcie_axi_dma(TB_SCENARIO=2,FIFO_DEPTH=256,BATCH_COUNT=4,BATCH_TIMEOUT=64,SINK_STALL_EN=1'b1,SINK_STALL_PERIOD=4,SINK_STALL_READY=1) .dut.u_fifo  File: /get/work/krishna.vardhan/git_trees/mtp_pcie_axi/pcie_axi_dma_latency/design/rtl/axis_fifo.sv Line: 165
Warning: [axis_fifo] FIFO full (depth=256) — upstream back-pressured at t=47285000
Time: 47285 ns  Iteration: 0  Process: /tb_pcie_axi_dma(TB_SCENARIO=2,FIFO_DEPTH=256,BATCH_COUNT=4,BATCH_TIMEOUT=64,SINK_STALL_EN=1'b1,SINK_STALL_PERIOD=4,SINK_STALL_READY=1)/dut/u_fifo/Always163_9  Scope: \tb_pcie_axi_dma(TB_SCENARIO=2,FIFO_DEPTH=256,BATCH_COUNT=4,BATCH_TIMEOUT=64,SINK_STALL_EN=1'b1,SINK_STALL_PERIOD=4,SINK_STALL_READY=1) .dut.u_fifo  File: /get/work/krishna.vardhan/git_trees/mtp_pcie_axi/pcie_axi_dma_latency/design/rtl/axis_fifo.sv Line: 165
Warning: [axis_fifo] FIFO full (depth=256) — upstream back-pressured at t=47295000
Time: 47295 ns  Iteration: 0  Process: /tb_pcie_axi_dma(TB_SCENARIO=2,FIFO_DEPTH=256,BATCH_COUNT=4,BATCH_TIMEOUT=64,SINK_STALL_EN=1'b1,SINK_STALL_PERIOD=4,SINK_STALL_READY=1)/dut/u_fifo/Always163_9  Scope: \tb_pcie_axi_dma(TB_SCENARIO=2,FIFO_DEPTH=256,BATCH_COUNT=4,BATCH_TIMEOUT=64,SINK_STALL_EN=1'b1,SINK_STALL_PERIOD=4,SINK_STALL_READY=1) .dut.u_fifo  File: /get/work/krishna.vardhan/git_trees/mtp_pcie_axi/pcie_axi_dma_latency/design/rtl/axis_fifo.sv Line: 165
Warning: [axis_fifo] FIFO full (depth=256) — upstream back-pressured at t=47315000
Time: 47315 ns  Iteration: 0  Process: /tb_pcie_axi_dma(TB_SCENARIO=2,FIFO_DEPTH=256,BATCH_COUNT=4,BATCH_TIMEOUT=64,SINK_STALL_EN=1'b1,SINK_STALL_PERIOD=4,SINK_STALL_READY=1)/dut/u_fifo/Always163_9  Scope: \tb_pcie_axi_dma(TB_SCENARIO=2,FIFO_DEPTH=256,BATCH_COUNT=4,BATCH_TIMEOUT=64,SINK_STALL_EN=1'b1,SINK_STALL_PERIOD=4,SINK_STALL_READY=1) .dut.u_fifo  File: /get/work/krishna.vardhan/git_trees/mtp_pcie_axi/pcie_axi_dma_latency/design/rtl/axis_fifo.sv Line: 165
Warning: [axis_fifo] FIFO full (depth=256) — upstream back-pressured at t=47325000
Time: 47325 ns  Iteration: 0  Process: /tb_pcie_axi_dma(TB_SCENARIO=2,FIFO_DEPTH=256,BATCH_COUNT=4,BATCH_TIMEOUT=64,SINK_STALL_EN=1'b1,SINK_STALL_PERIOD=4,SINK_STALL_READY=1)/dut/u_fifo/Always163_9  Scope: \tb_pcie_axi_dma(TB_SCENARIO=2,FIFO_DEPTH=256,BATCH_COUNT=4,BATCH_TIMEOUT=64,SINK_STALL_EN=1'b1,SINK_STALL_PERIOD=4,SINK_STALL_READY=1) .dut.u_fifo  File: /get/work/krishna.vardhan/git_trees/mtp_pcie_axi/pcie_axi_dma_latency/design/rtl/axis_fifo.sv Line: 165
Warning: [axis_fifo] FIFO full (depth=256) — upstream back-pressured at t=47335000
Time: 47335 ns  Iteration: 0  Process: /tb_pcie_axi_dma(TB_SCENARIO=2,FIFO_DEPTH=256,BATCH_COUNT=4,BATCH_TIMEOUT=64,SINK_STALL_EN=1'b1,SINK_STALL_PERIOD=4,SINK_STALL_READY=1)/dut/u_fifo/Always163_9  Scope: \tb_pcie_axi_dma(TB_SCENARIO=2,FIFO_DEPTH=256,BATCH_COUNT=4,BATCH_TIMEOUT=64,SINK_STALL_EN=1'b1,SINK_STALL_PERIOD=4,SINK_STALL_READY=1) .dut.u_fifo  File: /get/work/krishna.vardhan/git_trees/mtp_pcie_axi/pcie_axi_dma_latency/design/rtl/axis_fifo.sv Line: 165
Warning: [axis_fifo] FIFO full (depth=256) — upstream back-pressured at t=47355000
Time: 47355 ns  Iteration: 0  Process: /tb_pcie_axi_dma(TB_SCENARIO=2,FIFO_DEPTH=256,BATCH_COUNT=4,BATCH_TIMEOUT=64,SINK_STALL_EN=1'b1,SINK_STALL_PERIOD=4,SINK_STALL_READY=1)/dut/u_fifo/Always163_9  Scope: \tb_pcie_axi_dma(TB_SCENARIO=2,FIFO_DEPTH=256,BATCH_COUNT=4,BATCH_TIMEOUT=64,SINK_STALL_EN=1'b1,SINK_STALL_PERIOD=4,SINK_STALL_READY=1) .dut.u_fifo  File: /get/work/krishna.vardhan/git_trees/mtp_pcie_axi/pcie_axi_dma_latency/design/rtl/axis_fifo.sv Line: 165
Warning: [axis_fifo] FIFO full (depth=256) — upstream back-pressured at t=47365000
Time: 47365 ns  Iteration: 0  Process: /tb_pcie_axi_dma(TB_SCENARIO=2,FIFO_DEPTH=256,BATCH_COUNT=4,BATCH_TIMEOUT=64,SINK_STALL_EN=1'b1,SINK_STALL_PERIOD=4,SINK_STALL_READY=1)/dut/u_fifo/Always163_9  Scope: \tb_pcie_axi_dma(TB_SCENARIO=2,FIFO_DEPTH=256,BATCH_COUNT=4,BATCH_TIMEOUT=64,SINK_STALL_EN=1'b1,SINK_STALL_PERIOD=4,SINK_STALL_READY=1) .dut.u_fifo  File: /get/work/krishna.vardhan/git_trees/mtp_pcie_axi/pcie_axi_dma_latency/design/rtl/axis_fifo.sv Line: 165
Warning: [axis_fifo] FIFO full (depth=256) — upstream back-pressured at t=47375000
Time: 47375 ns  Iteration: 0  Process: /tb_pcie_axi_dma(TB_SCENARIO=2,FIFO_DEPTH=256,BATCH_COUNT=4,BATCH_TIMEOUT=64,SINK_STALL_EN=1'b1,SINK_STALL_PERIOD=4,SINK_STALL_READY=1)/dut/u_fifo/Always163_9  Scope: \tb_pcie_axi_dma(TB_SCENARIO=2,FIFO_DEPTH=256,BATCH_COUNT=4,BATCH_TIMEOUT=64,SINK_STALL_EN=1'b1,SINK_STALL_PERIOD=4,SINK_STALL_READY=1) .dut.u_fifo  File: /get/work/krishna.vardhan/git_trees/mtp_pcie_axi/pcie_axi_dma_latency/design/rtl/axis_fifo.sv Line: 165
Warning: [axis_fifo] FIFO full (depth=256) — upstream back-pressured at t=47395000
Time: 47395 ns  Iteration: 0  Process: /tb_pcie_axi_dma(TB_SCENARIO=2,FIFO_DEPTH=256,BATCH_COUNT=4,BATCH_TIMEOUT=64,SINK_STALL_EN=1'b1,SINK_STALL_PERIOD=4,SINK_STALL_READY=1)/dut/u_fifo/Always163_9  Scope: \tb_pcie_axi_dma(TB_SCENARIO=2,FIFO_DEPTH=256,BATCH_COUNT=4,BATCH_TIMEOUT=64,SINK_STALL_EN=1'b1,SINK_STALL_PERIOD=4,SINK_STALL_READY=1) .dut.u_fifo  File: /get/work/krishna.vardhan/git_trees/mtp_pcie_axi/pcie_axi_dma_latency/design/rtl/axis_fifo.sv Line: 165
Warning: [axis_fifo] FIFO full (depth=256) — upstream back-pressured at t=47405000
Time: 47405 ns  Iteration: 0  Process: /tb_pcie_axi_dma(TB_SCENARIO=2,FIFO_DEPTH=256,BATCH_COUNT=4,BATCH_TIMEOUT=64,SINK_STALL_EN=1'b1,SINK_STALL_PERIOD=4,SINK_STALL_READY=1)/dut/u_fifo/Always163_9  Scope: \tb_pcie_axi_dma(TB_SCENARIO=2,FIFO_DEPTH=256,BATCH_COUNT=4,BATCH_TIMEOUT=64,SINK_STALL_EN=1'b1,SINK_STALL_PERIOD=4,SINK_STALL_READY=1) .dut.u_fifo  File: /get/work/krishna.vardhan/git_trees/mtp_pcie_axi/pcie_axi_dma_latency/design/rtl/axis_fifo.sv Line: 165
Warning: [axis_fifo] FIFO full (depth=256) — upstream back-pressured at t=47415000
Time: 47415 ns  Iteration: 0  Process: /tb_pcie_axi_dma(TB_SCENARIO=2,FIFO_DEPTH=256,BATCH_COUNT=4,BATCH_TIMEOUT=64,SINK_STALL_EN=1'b1,SINK_STALL_PERIOD=4,SINK_STALL_READY=1)/dut/u_fifo/Always163_9  Scope: \tb_pcie_axi_dma(TB_SCENARIO=2,FIFO_DEPTH=256,BATCH_COUNT=4,BATCH_TIMEOUT=64,SINK_STALL_EN=1'b1,SINK_STALL_PERIOD=4,SINK_STALL_READY=1) .dut.u_fifo  File: /get/work/krishna.vardhan/git_trees/mtp_pcie_axi/pcie_axi_dma_latency/design/rtl/axis_fifo.sv Line: 165
Warning: [axis_fifo] FIFO full (depth=256) — upstream back-pressured at t=47435000
Time: 47435 ns  Iteration: 0  Process: /tb_pcie_axi_dma(TB_SCENARIO=2,FIFO_DEPTH=256,BATCH_COUNT=4,BATCH_TIMEOUT=64,SINK_STALL_EN=1'b1,SINK_STALL_PERIOD=4,SINK_STALL_READY=1)/dut/u_fifo/Always163_9  Scope: \tb_pcie_axi_dma(TB_SCENARIO=2,FIFO_DEPTH=256,BATCH_COUNT=4,BATCH_TIMEOUT=64,SINK_STALL_EN=1'b1,SINK_STALL_PERIOD=4,SINK_STALL_READY=1) .dut.u_fifo  File: /get/work/krishna.vardhan/git_trees/mtp_pcie_axi/pcie_axi_dma_latency/design/rtl/axis_fifo.sv Line: 165
Warning: [axis_fifo] FIFO full (depth=256) — upstream back-pressured at t=47445000
Time: 47445 ns  Iteration: 0  Process: /tb_pcie_axi_dma(TB_SCENARIO=2,FIFO_DEPTH=256,BATCH_COUNT=4,BATCH_TIMEOUT=64,SINK_STALL_EN=1'b1,SINK_STALL_PERIOD=4,SINK_STALL_READY=1)/dut/u_fifo/Always163_9  Scope: \tb_pcie_axi_dma(TB_SCENARIO=2,FIFO_DEPTH=256,BATCH_COUNT=4,BATCH_TIMEOUT=64,SINK_STALL_EN=1'b1,SINK_STALL_PERIOD=4,SINK_STALL_READY=1) .dut.u_fifo  File: /get/work/krishna.vardhan/git_trees/mtp_pcie_axi/pcie_axi_dma_latency/design/rtl/axis_fifo.sv Line: 165
Warning: [axis_fifo] FIFO full (depth=256) — upstream back-pressured at t=47455000
Time: 47455 ns  Iteration: 0  Process: /tb_pcie_axi_dma(TB_SCENARIO=2,FIFO_DEPTH=256,BATCH_COUNT=4,BATCH_TIMEOUT=64,SINK_STALL_EN=1'b1,SINK_STALL_PERIOD=4,SINK_STALL_READY=1)/dut/u_fifo/Always163_9  Scope: \tb_pcie_axi_dma(TB_SCENARIO=2,FIFO_DEPTH=256,BATCH_COUNT=4,BATCH_TIMEOUT=64,SINK_STALL_EN=1'b1,SINK_STALL_PERIOD=4,SINK_STALL_READY=1) .dut.u_fifo  File: /get/work/krishna.vardhan/git_trees/mtp_pcie_axi/pcie_axi_dma_latency/design/rtl/axis_fifo.sv Line: 165
Warning: [axis_fifo] FIFO full (depth=256) — upstream back-pressured at t=47475000
Time: 47475 ns  Iteration: 0  Process: /tb_pcie_axi_dma(TB_SCENARIO=2,FIFO_DEPTH=256,BATCH_COUNT=4,BATCH_TIMEOUT=64,SINK_STALL_EN=1'b1,SINK_STALL_PERIOD=4,SINK_STALL_READY=1)/dut/u_fifo/Always163_9  Scope: \tb_pcie_axi_dma(TB_SCENARIO=2,FIFO_DEPTH=256,BATCH_COUNT=4,BATCH_TIMEOUT=64,SINK_STALL_EN=1'b1,SINK_STALL_PERIOD=4,SINK_STALL_READY=1) .dut.u_fifo  File: /get/work/krishna.vardhan/git_trees/mtp_pcie_axi/pcie_axi_dma_latency/design/rtl/axis_fifo.sv Line: 165
Warning: [axis_fifo] FIFO full (depth=256) — upstream back-pressured at t=47485000
Time: 47485 ns  Iteration: 0  Process: /tb_pcie_axi_dma(TB_SCENARIO=2,FIFO_DEPTH=256,BATCH_COUNT=4,BATCH_TIMEOUT=64,SINK_STALL_EN=1'b1,SINK_STALL_PERIOD=4,SINK_STALL_READY=1)/dut/u_fifo/Always163_9  Scope: \tb_pcie_axi_dma(TB_SCENARIO=2,FIFO_DEPTH=256,BATCH_COUNT=4,BATCH_TIMEOUT=64,SINK_STALL_EN=1'b1,SINK_STALL_PERIOD=4,SINK_STALL_READY=1) .dut.u_fifo  File: /get/work/krishna.vardhan/git_trees/mtp_pcie_axi/pcie_axi_dma_latency/design/rtl/axis_fifo.sv Line: 165
Warning: [axis_fifo] FIFO full (depth=256) — upstream back-pressured at t=47495000
Time: 47495 ns  Iteration: 0  Process: /tb_pcie_axi_dma(TB_SCENARIO=2,FIFO_DEPTH=256,BATCH_COUNT=4,BATCH_TIMEOUT=64,SINK_STALL_EN=1'b1,SINK_STALL_PERIOD=4,SINK_STALL_READY=1)/dut/u_fifo/Always163_9  Scope: \tb_pcie_axi_dma(TB_SCENARIO=2,FIFO_DEPTH=256,BATCH_COUNT=4,BATCH_TIMEOUT=64,SINK_STALL_EN=1'b1,SINK_STALL_PERIOD=4,SINK_STALL_READY=1) .dut.u_fifo  File: /get/work/krishna.vardhan/git_trees/mtp_pcie_axi/pcie_axi_dma_latency/design/rtl/axis_fifo.sv Line: 165
Warning: [axis_fifo] FIFO full (depth=256) — upstream back-pressured at t=47515000
Time: 47515 ns  Iteration: 0  Process: /tb_pcie_axi_dma(TB_SCENARIO=2,FIFO_DEPTH=256,BATCH_COUNT=4,BATCH_TIMEOUT=64,SINK_STALL_EN=1'b1,SINK_STALL_PERIOD=4,SINK_STALL_READY=1)/dut/u_fifo/Always163_9  Scope: \tb_pcie_axi_dma(TB_SCENARIO=2,FIFO_DEPTH=256,BATCH_COUNT=4,BATCH_TIMEOUT=64,SINK_STALL_EN=1'b1,SINK_STALL_PERIOD=4,SINK_STALL_READY=1) .dut.u_fifo  File: /get/work/krishna.vardhan/git_trees/mtp_pcie_axi/pcie_axi_dma_latency/design/rtl/axis_fifo.sv Line: 165
Warning: [axis_fifo] FIFO full (depth=256) — upstream back-pressured at t=47525000
Time: 47525 ns  Iteration: 0  Process: /tb_pcie_axi_dma(TB_SCENARIO=2,FIFO_DEPTH=256,BATCH_COUNT=4,BATCH_TIMEOUT=64,SINK_STALL_EN=1'b1,SINK_STALL_PERIOD=4,SINK_STALL_READY=1)/dut/u_fifo/Always163_9  Scope: \tb_pcie_axi_dma(TB_SCENARIO=2,FIFO_DEPTH=256,BATCH_COUNT=4,BATCH_TIMEOUT=64,SINK_STALL_EN=1'b1,SINK_STALL_PERIOD=4,SINK_STALL_READY=1) .dut.u_fifo  File: /get/work/krishna.vardhan/git_trees/mtp_pcie_axi/pcie_axi_dma_latency/design/rtl/axis_fifo.sv Line: 165
Warning: [axis_fifo] FIFO full (depth=256) — upstream back-pressured at t=47535000
Time: 47535 ns  Iteration: 0  Process: /tb_pcie_axi_dma(TB_SCENARIO=2,FIFO_DEPTH=256,BATCH_COUNT=4,BATCH_TIMEOUT=64,SINK_STALL_EN=1'b1,SINK_STALL_PERIOD=4,SINK_STALL_READY=1)/dut/u_fifo/Always163_9  Scope: \tb_pcie_axi_dma(TB_SCENARIO=2,FIFO_DEPTH=256,BATCH_COUNT=4,BATCH_TIMEOUT=64,SINK_STALL_EN=1'b1,SINK_STALL_PERIOD=4,SINK_STALL_READY=1) .dut.u_fifo  File: /get/work/krishna.vardhan/git_trees/mtp_pcie_axi/pcie_axi_dma_latency/design/rtl/axis_fifo.sv Line: 165
Warning: [axis_fifo] FIFO full (depth=256) — upstream back-pressured at t=47555000
Time: 47555 ns  Iteration: 0  Process: /tb_pcie_axi_dma(TB_SCENARIO=2,FIFO_DEPTH=256,BATCH_COUNT=4,BATCH_TIMEOUT=64,SINK_STALL_EN=1'b1,SINK_STALL_PERIOD=4,SINK_STALL_READY=1)/dut/u_fifo/Always163_9  Scope: \tb_pcie_axi_dma(TB_SCENARIO=2,FIFO_DEPTH=256,BATCH_COUNT=4,BATCH_TIMEOUT=64,SINK_STALL_EN=1'b1,SINK_STALL_PERIOD=4,SINK_STALL_READY=1) .dut.u_fifo  File: /get/work/krishna.vardhan/git_trees/mtp_pcie_axi/pcie_axi_dma_latency/design/rtl/axis_fifo.sv Line: 165
Warning: [axis_fifo] FIFO full (depth=256) — upstream back-pressured at t=47565000
Time: 47565 ns  Iteration: 0  Process: /tb_pcie_axi_dma(TB_SCENARIO=2,FIFO_DEPTH=256,BATCH_COUNT=4,BATCH_TIMEOUT=64,SINK_STALL_EN=1'b1,SINK_STALL_PERIOD=4,SINK_STALL_READY=1)/dut/u_fifo/Always163_9  Scope: \tb_pcie_axi_dma(TB_SCENARIO=2,FIFO_DEPTH=256,BATCH_COUNT=4,BATCH_TIMEOUT=64,SINK_STALL_EN=1'b1,SINK_STALL_PERIOD=4,SINK_STALL_READY=1) .dut.u_fifo  File: /get/work/krishna.vardhan/git_trees/mtp_pcie_axi/pcie_axi_dma_latency/design/rtl/axis_fifo.sv Line: 165
Warning: [axis_fifo] FIFO full (depth=256) — upstream back-pressured at t=47575000
Time: 47575 ns  Iteration: 0  Process: /tb_pcie_axi_dma(TB_SCENARIO=2,FIFO_DEPTH=256,BATCH_COUNT=4,BATCH_TIMEOUT=64,SINK_STALL_EN=1'b1,SINK_STALL_PERIOD=4,SINK_STALL_READY=1)/dut/u_fifo/Always163_9  Scope: \tb_pcie_axi_dma(TB_SCENARIO=2,FIFO_DEPTH=256,BATCH_COUNT=4,BATCH_TIMEOUT=64,SINK_STALL_EN=1'b1,SINK_STALL_PERIOD=4,SINK_STALL_READY=1) .dut.u_fifo  File: /get/work/krishna.vardhan/git_trees/mtp_pcie_axi/pcie_axi_dma_latency/design/rtl/axis_fifo.sv Line: 165
Warning: [axis_fifo] FIFO full (depth=256) — upstream back-pressured at t=47595000
Time: 47595 ns  Iteration: 0  Process: /tb_pcie_axi_dma(TB_SCENARIO=2,FIFO_DEPTH=256,BATCH_COUNT=4,BATCH_TIMEOUT=64,SINK_STALL_EN=1'b1,SINK_STALL_PERIOD=4,SINK_STALL_READY=1)/dut/u_fifo/Always163_9  Scope: \tb_pcie_axi_dma(TB_SCENARIO=2,FIFO_DEPTH=256,BATCH_COUNT=4,BATCH_TIMEOUT=64,SINK_STALL_EN=1'b1,SINK_STALL_PERIOD=4,SINK_STALL_READY=1) .dut.u_fifo  File: /get/work/krishna.vardhan/git_trees/mtp_pcie_axi/pcie_axi_dma_latency/design/rtl/axis_fifo.sv Line: 165
Warning: [axis_fifo] FIFO full (depth=256) — upstream back-pressured at t=47605000
Time: 47605 ns  Iteration: 0  Process: /tb_pcie_axi_dma(TB_SCENARIO=2,FIFO_DEPTH=256,BATCH_COUNT=4,BATCH_TIMEOUT=64,SINK_STALL_EN=1'b1,SINK_STALL_PERIOD=4,SINK_STALL_READY=1)/dut/u_fifo/Always163_9  Scope: \tb_pcie_axi_dma(TB_SCENARIO=2,FIFO_DEPTH=256,BATCH_COUNT=4,BATCH_TIMEOUT=64,SINK_STALL_EN=1'b1,SINK_STALL_PERIOD=4,SINK_STALL_READY=1) .dut.u_fifo  File: /get/work/krishna.vardhan/git_trees/mtp_pcie_axi/pcie_axi_dma_latency/design/rtl/axis_fifo.sv Line: 165
Warning: [axis_fifo] FIFO full (depth=256) — upstream back-pressured at t=47615000
Time: 47615 ns  Iteration: 0  Process: /tb_pcie_axi_dma(TB_SCENARIO=2,FIFO_DEPTH=256,BATCH_COUNT=4,BATCH_TIMEOUT=64,SINK_STALL_EN=1'b1,SINK_STALL_PERIOD=4,SINK_STALL_READY=1)/dut/u_fifo/Always163_9  Scope: \tb_pcie_axi_dma(TB_SCENARIO=2,FIFO_DEPTH=256,BATCH_COUNT=4,BATCH_TIMEOUT=64,SINK_STALL_EN=1'b1,SINK_STALL_PERIOD=4,SINK_STALL_READY=1) .dut.u_fifo  File: /get/work/krishna.vardhan/git_trees/mtp_pcie_axi/pcie_axi_dma_latency/design/rtl/axis_fifo.sv Line: 165
Warning: [axis_fifo] FIFO full (depth=256) — upstream back-pressured at t=47635000
Time: 47635 ns  Iteration: 0  Process: /tb_pcie_axi_dma(TB_SCENARIO=2,FIFO_DEPTH=256,BATCH_COUNT=4,BATCH_TIMEOUT=64,SINK_STALL_EN=1'b1,SINK_STALL_PERIOD=4,SINK_STALL_READY=1)/dut/u_fifo/Always163_9  Scope: \tb_pcie_axi_dma(TB_SCENARIO=2,FIFO_DEPTH=256,BATCH_COUNT=4,BATCH_TIMEOUT=64,SINK_STALL_EN=1'b1,SINK_STALL_PERIOD=4,SINK_STALL_READY=1) .dut.u_fifo  File: /get/work/krishna.vardhan/git_trees/mtp_pcie_axi/pcie_axi_dma_latency/design/rtl/axis_fifo.sv Line: 165
Warning: [axis_fifo] FIFO full (depth=256) — upstream back-pressured at t=47645000
Time: 47645 ns  Iteration: 0  Process: /tb_pcie_axi_dma(TB_SCENARIO=2,FIFO_DEPTH=256,BATCH_COUNT=4,BATCH_TIMEOUT=64,SINK_STALL_EN=1'b1,SINK_STALL_PERIOD=4,SINK_STALL_READY=1)/dut/u_fifo/Always163_9  Scope: \tb_pcie_axi_dma(TB_SCENARIO=2,FIFO_DEPTH=256,BATCH_COUNT=4,BATCH_TIMEOUT=64,SINK_STALL_EN=1'b1,SINK_STALL_PERIOD=4,SINK_STALL_READY=1) .dut.u_fifo  File: /get/work/krishna.vardhan/git_trees/mtp_pcie_axi/pcie_axi_dma_latency/design/rtl/axis_fifo.sv Line: 165
Warning: [axis_fifo] FIFO full (depth=256) — upstream back-pressured at t=47655000
Time: 47655 ns  Iteration: 0  Process: /tb_pcie_axi_dma(TB_SCENARIO=2,FIFO_DEPTH=256,BATCH_COUNT=4,BATCH_TIMEOUT=64,SINK_STALL_EN=1'b1,SINK_STALL_PERIOD=4,SINK_STALL_READY=1)/dut/u_fifo/Always163_9  Scope: \tb_pcie_axi_dma(TB_SCENARIO=2,FIFO_DEPTH=256,BATCH_COUNT=4,BATCH_TIMEOUT=64,SINK_STALL_EN=1'b1,SINK_STALL_PERIOD=4,SINK_STALL_READY=1) .dut.u_fifo  File: /get/work/krishna.vardhan/git_trees/mtp_pcie_axi/pcie_axi_dma_latency/design/rtl/axis_fifo.sv Line: 165
Warning: [axis_fifo] FIFO full (depth=256) — upstream back-pressured at t=47675000
Time: 47675 ns  Iteration: 0  Process: /tb_pcie_axi_dma(TB_SCENARIO=2,FIFO_DEPTH=256,BATCH_COUNT=4,BATCH_TIMEOUT=64,SINK_STALL_EN=1'b1,SINK_STALL_PERIOD=4,SINK_STALL_READY=1)/dut/u_fifo/Always163_9  Scope: \tb_pcie_axi_dma(TB_SCENARIO=2,FIFO_DEPTH=256,BATCH_COUNT=4,BATCH_TIMEOUT=64,SINK_STALL_EN=1'b1,SINK_STALL_PERIOD=4,SINK_STALL_READY=1) .dut.u_fifo  File: /get/work/krishna.vardhan/git_trees/mtp_pcie_axi/pcie_axi_dma_latency/design/rtl/axis_fifo.sv Line: 165
Warning: [axis_fifo] FIFO full (depth=256) — upstream back-pressured at t=47685000
Time: 47685 ns  Iteration: 0  Process: /tb_pcie_axi_dma(TB_SCENARIO=2,FIFO_DEPTH=256,BATCH_COUNT=4,BATCH_TIMEOUT=64,SINK_STALL_EN=1'b1,SINK_STALL_PERIOD=4,SINK_STALL_READY=1)/dut/u_fifo/Always163_9  Scope: \tb_pcie_axi_dma(TB_SCENARIO=2,FIFO_DEPTH=256,BATCH_COUNT=4,BATCH_TIMEOUT=64,SINK_STALL_EN=1'b1,SINK_STALL_PERIOD=4,SINK_STALL_READY=1) .dut.u_fifo  File: /get/work/krishna.vardhan/git_trees/mtp_pcie_axi/pcie_axi_dma_latency/design/rtl/axis_fifo.sv Line: 165
Warning: [axis_fifo] FIFO full (depth=256) — upstream back-pressured at t=47695000
Time: 47695 ns  Iteration: 0  Process: /tb_pcie_axi_dma(TB_SCENARIO=2,FIFO_DEPTH=256,BATCH_COUNT=4,BATCH_TIMEOUT=64,SINK_STALL_EN=1'b1,SINK_STALL_PERIOD=4,SINK_STALL_READY=1)/dut/u_fifo/Always163_9  Scope: \tb_pcie_axi_dma(TB_SCENARIO=2,FIFO_DEPTH=256,BATCH_COUNT=4,BATCH_TIMEOUT=64,SINK_STALL_EN=1'b1,SINK_STALL_PERIOD=4,SINK_STALL_READY=1) .dut.u_fifo  File: /get/work/krishna.vardhan/git_trees/mtp_pcie_axi/pcie_axi_dma_latency/design/rtl/axis_fifo.sv Line: 165
Warning: [axis_fifo] FIFO full (depth=256) — upstream back-pressured at t=47715000
Time: 47715 ns  Iteration: 0  Process: /tb_pcie_axi_dma(TB_SCENARIO=2,FIFO_DEPTH=256,BATCH_COUNT=4,BATCH_TIMEOUT=64,SINK_STALL_EN=1'b1,SINK_STALL_PERIOD=4,SINK_STALL_READY=1)/dut/u_fifo/Always163_9  Scope: \tb_pcie_axi_dma(TB_SCENARIO=2,FIFO_DEPTH=256,BATCH_COUNT=4,BATCH_TIMEOUT=64,SINK_STALL_EN=1'b1,SINK_STALL_PERIOD=4,SINK_STALL_READY=1) .dut.u_fifo  File: /get/work/krishna.vardhan/git_trees/mtp_pcie_axi/pcie_axi_dma_latency/design/rtl/axis_fifo.sv Line: 165
Warning: [axis_fifo] FIFO full (depth=256) — upstream back-pressured at t=47725000
Time: 47725 ns  Iteration: 0  Process: /tb_pcie_axi_dma(TB_SCENARIO=2,FIFO_DEPTH=256,BATCH_COUNT=4,BATCH_TIMEOUT=64,SINK_STALL_EN=1'b1,SINK_STALL_PERIOD=4,SINK_STALL_READY=1)/dut/u_fifo/Always163_9  Scope: \tb_pcie_axi_dma(TB_SCENARIO=2,FIFO_DEPTH=256,BATCH_COUNT=4,BATCH_TIMEOUT=64,SINK_STALL_EN=1'b1,SINK_STALL_PERIOD=4,SINK_STALL_READY=1) .dut.u_fifo  File: /get/work/krishna.vardhan/git_trees/mtp_pcie_axi/pcie_axi_dma_latency/design/rtl/axis_fifo.sv Line: 165
Warning: [axis_fifo] FIFO full (depth=256) — upstream back-pressured at t=47735000
Time: 47735 ns  Iteration: 0  Process: /tb_pcie_axi_dma(TB_SCENARIO=2,FIFO_DEPTH=256,BATCH_COUNT=4,BATCH_TIMEOUT=64,SINK_STALL_EN=1'b1,SINK_STALL_PERIOD=4,SINK_STALL_READY=1)/dut/u_fifo/Always163_9  Scope: \tb_pcie_axi_dma(TB_SCENARIO=2,FIFO_DEPTH=256,BATCH_COUNT=4,BATCH_TIMEOUT=64,SINK_STALL_EN=1'b1,SINK_STALL_PERIOD=4,SINK_STALL_READY=1) .dut.u_fifo  File: /get/work/krishna.vardhan/git_trees/mtp_pcie_axi/pcie_axi_dma_latency/design/rtl/axis_fifo.sv Line: 165
Warning: [axis_fifo] FIFO full (depth=256) — upstream back-pressured at t=47755000
Time: 47755 ns  Iteration: 0  Process: /tb_pcie_axi_dma(TB_SCENARIO=2,FIFO_DEPTH=256,BATCH_COUNT=4,BATCH_TIMEOUT=64,SINK_STALL_EN=1'b1,SINK_STALL_PERIOD=4,SINK_STALL_READY=1)/dut/u_fifo/Always163_9  Scope: \tb_pcie_axi_dma(TB_SCENARIO=2,FIFO_DEPTH=256,BATCH_COUNT=4,BATCH_TIMEOUT=64,SINK_STALL_EN=1'b1,SINK_STALL_PERIOD=4,SINK_STALL_READY=1) .dut.u_fifo  File: /get/work/krishna.vardhan/git_trees/mtp_pcie_axi/pcie_axi_dma_latency/design/rtl/axis_fifo.sv Line: 165
Warning: [axis_fifo] FIFO full (depth=256) — upstream back-pressured at t=47765000
Time: 47765 ns  Iteration: 0  Process: /tb_pcie_axi_dma(TB_SCENARIO=2,FIFO_DEPTH=256,BATCH_COUNT=4,BATCH_TIMEOUT=64,SINK_STALL_EN=1'b1,SINK_STALL_PERIOD=4,SINK_STALL_READY=1)/dut/u_fifo/Always163_9  Scope: \tb_pcie_axi_dma(TB_SCENARIO=2,FIFO_DEPTH=256,BATCH_COUNT=4,BATCH_TIMEOUT=64,SINK_STALL_EN=1'b1,SINK_STALL_PERIOD=4,SINK_STALL_READY=1) .dut.u_fifo  File: /get/work/krishna.vardhan/git_trees/mtp_pcie_axi/pcie_axi_dma_latency/design/rtl/axis_fifo.sv Line: 165
Warning: [axis_fifo] FIFO full (depth=256) — upstream back-pressured at t=47775000
Time: 47775 ns  Iteration: 0  Process: /tb_pcie_axi_dma(TB_SCENARIO=2,FIFO_DEPTH=256,BATCH_COUNT=4,BATCH_TIMEOUT=64,SINK_STALL_EN=1'b1,SINK_STALL_PERIOD=4,SINK_STALL_READY=1)/dut/u_fifo/Always163_9  Scope: \tb_pcie_axi_dma(TB_SCENARIO=2,FIFO_DEPTH=256,BATCH_COUNT=4,BATCH_TIMEOUT=64,SINK_STALL_EN=1'b1,SINK_STALL_PERIOD=4,SINK_STALL_READY=1) .dut.u_fifo  File: /get/work/krishna.vardhan/git_trees/mtp_pcie_axi/pcie_axi_dma_latency/design/rtl/axis_fifo.sv Line: 165
Warning: [axis_fifo] FIFO full (depth=256) — upstream back-pressured at t=47795000
Time: 47795 ns  Iteration: 0  Process: /tb_pcie_axi_dma(TB_SCENARIO=2,FIFO_DEPTH=256,BATCH_COUNT=4,BATCH_TIMEOUT=64,SINK_STALL_EN=1'b1,SINK_STALL_PERIOD=4,SINK_STALL_READY=1)/dut/u_fifo/Always163_9  Scope: \tb_pcie_axi_dma(TB_SCENARIO=2,FIFO_DEPTH=256,BATCH_COUNT=4,BATCH_TIMEOUT=64,SINK_STALL_EN=1'b1,SINK_STALL_PERIOD=4,SINK_STALL_READY=1) .dut.u_fifo  File: /get/work/krishna.vardhan/git_trees/mtp_pcie_axi/pcie_axi_dma_latency/design/rtl/axis_fifo.sv Line: 165
Warning: [axis_fifo] FIFO full (depth=256) — upstream back-pressured at t=47805000
Time: 47805 ns  Iteration: 0  Process: /tb_pcie_axi_dma(TB_SCENARIO=2,FIFO_DEPTH=256,BATCH_COUNT=4,BATCH_TIMEOUT=64,SINK_STALL_EN=1'b1,SINK_STALL_PERIOD=4,SINK_STALL_READY=1)/dut/u_fifo/Always163_9  Scope: \tb_pcie_axi_dma(TB_SCENARIO=2,FIFO_DEPTH=256,BATCH_COUNT=4,BATCH_TIMEOUT=64,SINK_STALL_EN=1'b1,SINK_STALL_PERIOD=4,SINK_STALL_READY=1) .dut.u_fifo  File: /get/work/krishna.vardhan/git_trees/mtp_pcie_axi/pcie_axi_dma_latency/design/rtl/axis_fifo.sv Line: 165
Warning: [axis_fifo] FIFO full (depth=256) — upstream back-pressured at t=47815000
Time: 47815 ns  Iteration: 0  Process: /tb_pcie_axi_dma(TB_SCENARIO=2,FIFO_DEPTH=256,BATCH_COUNT=4,BATCH_TIMEOUT=64,SINK_STALL_EN=1'b1,SINK_STALL_PERIOD=4,SINK_STALL_READY=1)/dut/u_fifo/Always163_9  Scope: \tb_pcie_axi_dma(TB_SCENARIO=2,FIFO_DEPTH=256,BATCH_COUNT=4,BATCH_TIMEOUT=64,SINK_STALL_EN=1'b1,SINK_STALL_PERIOD=4,SINK_STALL_READY=1) .dut.u_fifo  File: /get/work/krishna.vardhan/git_trees/mtp_pcie_axi/pcie_axi_dma_latency/design/rtl/axis_fifo.sv Line: 165
Warning: [axis_fifo] FIFO full (depth=256) — upstream back-pressured at t=47835000
Time: 47835 ns  Iteration: 0  Process: /tb_pcie_axi_dma(TB_SCENARIO=2,FIFO_DEPTH=256,BATCH_COUNT=4,BATCH_TIMEOUT=64,SINK_STALL_EN=1'b1,SINK_STALL_PERIOD=4,SINK_STALL_READY=1)/dut/u_fifo/Always163_9  Scope: \tb_pcie_axi_dma(TB_SCENARIO=2,FIFO_DEPTH=256,BATCH_COUNT=4,BATCH_TIMEOUT=64,SINK_STALL_EN=1'b1,SINK_STALL_PERIOD=4,SINK_STALL_READY=1) .dut.u_fifo  File: /get/work/krishna.vardhan/git_trees/mtp_pcie_axi/pcie_axi_dma_latency/design/rtl/axis_fifo.sv Line: 165
Warning: [axis_fifo] FIFO full (depth=256) — upstream back-pressured at t=47845000
Time: 47845 ns  Iteration: 0  Process: /tb_pcie_axi_dma(TB_SCENARIO=2,FIFO_DEPTH=256,BATCH_COUNT=4,BATCH_TIMEOUT=64,SINK_STALL_EN=1'b1,SINK_STALL_PERIOD=4,SINK_STALL_READY=1)/dut/u_fifo/Always163_9  Scope: \tb_pcie_axi_dma(TB_SCENARIO=2,FIFO_DEPTH=256,BATCH_COUNT=4,BATCH_TIMEOUT=64,SINK_STALL_EN=1'b1,SINK_STALL_PERIOD=4,SINK_STALL_READY=1) .dut.u_fifo  File: /get/work/krishna.vardhan/git_trees/mtp_pcie_axi/pcie_axi_dma_latency/design/rtl/axis_fifo.sv Line: 165
Warning: [axis_fifo] FIFO full (depth=256) — upstream back-pressured at t=47855000
Time: 47855 ns  Iteration: 0  Process: /tb_pcie_axi_dma(TB_SCENARIO=2,FIFO_DEPTH=256,BATCH_COUNT=4,BATCH_TIMEOUT=64,SINK_STALL_EN=1'b1,SINK_STALL_PERIOD=4,SINK_STALL_READY=1)/dut/u_fifo/Always163_9  Scope: \tb_pcie_axi_dma(TB_SCENARIO=2,FIFO_DEPTH=256,BATCH_COUNT=4,BATCH_TIMEOUT=64,SINK_STALL_EN=1'b1,SINK_STALL_PERIOD=4,SINK_STALL_READY=1) .dut.u_fifo  File: /get/work/krishna.vardhan/git_trees/mtp_pcie_axi/pcie_axi_dma_latency/design/rtl/axis_fifo.sv Line: 165
Warning: [axis_fifo] FIFO full (depth=256) — upstream back-pressured at t=47875000
Time: 47875 ns  Iteration: 0  Process: /tb_pcie_axi_dma(TB_SCENARIO=2,FIFO_DEPTH=256,BATCH_COUNT=4,BATCH_TIMEOUT=64,SINK_STALL_EN=1'b1,SINK_STALL_PERIOD=4,SINK_STALL_READY=1)/dut/u_fifo/Always163_9  Scope: \tb_pcie_axi_dma(TB_SCENARIO=2,FIFO_DEPTH=256,BATCH_COUNT=4,BATCH_TIMEOUT=64,SINK_STALL_EN=1'b1,SINK_STALL_PERIOD=4,SINK_STALL_READY=1) .dut.u_fifo  File: /get/work/krishna.vardhan/git_trees/mtp_pcie_axi/pcie_axi_dma_latency/design/rtl/axis_fifo.sv Line: 165
Warning: [axis_fifo] FIFO full (depth=256) — upstream back-pressured at t=47885000
Time: 47885 ns  Iteration: 0  Process: /tb_pcie_axi_dma(TB_SCENARIO=2,FIFO_DEPTH=256,BATCH_COUNT=4,BATCH_TIMEOUT=64,SINK_STALL_EN=1'b1,SINK_STALL_PERIOD=4,SINK_STALL_READY=1)/dut/u_fifo/Always163_9  Scope: \tb_pcie_axi_dma(TB_SCENARIO=2,FIFO_DEPTH=256,BATCH_COUNT=4,BATCH_TIMEOUT=64,SINK_STALL_EN=1'b1,SINK_STALL_PERIOD=4,SINK_STALL_READY=1) .dut.u_fifo  File: /get/work/krishna.vardhan/git_trees/mtp_pcie_axi/pcie_axi_dma_latency/design/rtl/axis_fifo.sv Line: 165
Warning: [axis_fifo] FIFO full (depth=256) — upstream back-pressured at t=47895000
Time: 47895 ns  Iteration: 0  Process: /tb_pcie_axi_dma(TB_SCENARIO=2,FIFO_DEPTH=256,BATCH_COUNT=4,BATCH_TIMEOUT=64,SINK_STALL_EN=1'b1,SINK_STALL_PERIOD=4,SINK_STALL_READY=1)/dut/u_fifo/Always163_9  Scope: \tb_pcie_axi_dma(TB_SCENARIO=2,FIFO_DEPTH=256,BATCH_COUNT=4,BATCH_TIMEOUT=64,SINK_STALL_EN=1'b1,SINK_STALL_PERIOD=4,SINK_STALL_READY=1) .dut.u_fifo  File: /get/work/krishna.vardhan/git_trees/mtp_pcie_axi/pcie_axi_dma_latency/design/rtl/axis_fifo.sv Line: 165
Warning: [axis_fifo] FIFO full (depth=256) — upstream back-pressured at t=47915000
Time: 47915 ns  Iteration: 0  Process: /tb_pcie_axi_dma(TB_SCENARIO=2,FIFO_DEPTH=256,BATCH_COUNT=4,BATCH_TIMEOUT=64,SINK_STALL_EN=1'b1,SINK_STALL_PERIOD=4,SINK_STALL_READY=1)/dut/u_fifo/Always163_9  Scope: \tb_pcie_axi_dma(TB_SCENARIO=2,FIFO_DEPTH=256,BATCH_COUNT=4,BATCH_TIMEOUT=64,SINK_STALL_EN=1'b1,SINK_STALL_PERIOD=4,SINK_STALL_READY=1) .dut.u_fifo  File: /get/work/krishna.vardhan/git_trees/mtp_pcie_axi/pcie_axi_dma_latency/design/rtl/axis_fifo.sv Line: 165
Warning: [axis_fifo] FIFO full (depth=256) — upstream back-pressured at t=47925000
Time: 47925 ns  Iteration: 0  Process: /tb_pcie_axi_dma(TB_SCENARIO=2,FIFO_DEPTH=256,BATCH_COUNT=4,BATCH_TIMEOUT=64,SINK_STALL_EN=1'b1,SINK_STALL_PERIOD=4,SINK_STALL_READY=1)/dut/u_fifo/Always163_9  Scope: \tb_pcie_axi_dma(TB_SCENARIO=2,FIFO_DEPTH=256,BATCH_COUNT=4,BATCH_TIMEOUT=64,SINK_STALL_EN=1'b1,SINK_STALL_PERIOD=4,SINK_STALL_READY=1) .dut.u_fifo  File: /get/work/krishna.vardhan/git_trees/mtp_pcie_axi/pcie_axi_dma_latency/design/rtl/axis_fifo.sv Line: 165
Warning: [axis_fifo] FIFO full (depth=256) — upstream back-pressured at t=47935000
Time: 47935 ns  Iteration: 0  Process: /tb_pcie_axi_dma(TB_SCENARIO=2,FIFO_DEPTH=256,BATCH_COUNT=4,BATCH_TIMEOUT=64,SINK_STALL_EN=1'b1,SINK_STALL_PERIOD=4,SINK_STALL_READY=1)/dut/u_fifo/Always163_9  Scope: \tb_pcie_axi_dma(TB_SCENARIO=2,FIFO_DEPTH=256,BATCH_COUNT=4,BATCH_TIMEOUT=64,SINK_STALL_EN=1'b1,SINK_STALL_PERIOD=4,SINK_STALL_READY=1) .dut.u_fifo  File: /get/work/krishna.vardhan/git_trees/mtp_pcie_axi/pcie_axi_dma_latency/design/rtl/axis_fifo.sv Line: 165
Warning: [axis_fifo] FIFO full (depth=256) — upstream back-pressured at t=47955000
Time: 47955 ns  Iteration: 0  Process: /tb_pcie_axi_dma(TB_SCENARIO=2,FIFO_DEPTH=256,BATCH_COUNT=4,BATCH_TIMEOUT=64,SINK_STALL_EN=1'b1,SINK_STALL_PERIOD=4,SINK_STALL_READY=1)/dut/u_fifo/Always163_9  Scope: \tb_pcie_axi_dma(TB_SCENARIO=2,FIFO_DEPTH=256,BATCH_COUNT=4,BATCH_TIMEOUT=64,SINK_STALL_EN=1'b1,SINK_STALL_PERIOD=4,SINK_STALL_READY=1) .dut.u_fifo  File: /get/work/krishna.vardhan/git_trees/mtp_pcie_axi/pcie_axi_dma_latency/design/rtl/axis_fifo.sv Line: 165
Warning: [axis_fifo] FIFO full (depth=256) — upstream back-pressured at t=47965000
Time: 47965 ns  Iteration: 0  Process: /tb_pcie_axi_dma(TB_SCENARIO=2,FIFO_DEPTH=256,BATCH_COUNT=4,BATCH_TIMEOUT=64,SINK_STALL_EN=1'b1,SINK_STALL_PERIOD=4,SINK_STALL_READY=1)/dut/u_fifo/Always163_9  Scope: \tb_pcie_axi_dma(TB_SCENARIO=2,FIFO_DEPTH=256,BATCH_COUNT=4,BATCH_TIMEOUT=64,SINK_STALL_EN=1'b1,SINK_STALL_PERIOD=4,SINK_STALL_READY=1) .dut.u_fifo  File: /get/work/krishna.vardhan/git_trees/mtp_pcie_axi/pcie_axi_dma_latency/design/rtl/axis_fifo.sv Line: 165
Warning: [axis_fifo] FIFO full (depth=256) — upstream back-pressured at t=47975000
Time: 47975 ns  Iteration: 0  Process: /tb_pcie_axi_dma(TB_SCENARIO=2,FIFO_DEPTH=256,BATCH_COUNT=4,BATCH_TIMEOUT=64,SINK_STALL_EN=1'b1,SINK_STALL_PERIOD=4,SINK_STALL_READY=1)/dut/u_fifo/Always163_9  Scope: \tb_pcie_axi_dma(TB_SCENARIO=2,FIFO_DEPTH=256,BATCH_COUNT=4,BATCH_TIMEOUT=64,SINK_STALL_EN=1'b1,SINK_STALL_PERIOD=4,SINK_STALL_READY=1) .dut.u_fifo  File: /get/work/krishna.vardhan/git_trees/mtp_pcie_axi/pcie_axi_dma_latency/design/rtl/axis_fifo.sv Line: 165
Warning: [axis_fifo] FIFO full (depth=256) — upstream back-pressured at t=47995000
Time: 47995 ns  Iteration: 0  Process: /tb_pcie_axi_dma(TB_SCENARIO=2,FIFO_DEPTH=256,BATCH_COUNT=4,BATCH_TIMEOUT=64,SINK_STALL_EN=1'b1,SINK_STALL_PERIOD=4,SINK_STALL_READY=1)/dut/u_fifo/Always163_9  Scope: \tb_pcie_axi_dma(TB_SCENARIO=2,FIFO_DEPTH=256,BATCH_COUNT=4,BATCH_TIMEOUT=64,SINK_STALL_EN=1'b1,SINK_STALL_PERIOD=4,SINK_STALL_READY=1) .dut.u_fifo  File: /get/work/krishna.vardhan/git_trees/mtp_pcie_axi/pcie_axi_dma_latency/design/rtl/axis_fifo.sv Line: 165
Warning: [axis_fifo] FIFO full (depth=256) — upstream back-pressured at t=48005000
Time: 48005 ns  Iteration: 0  Process: /tb_pcie_axi_dma(TB_SCENARIO=2,FIFO_DEPTH=256,BATCH_COUNT=4,BATCH_TIMEOUT=64,SINK_STALL_EN=1'b1,SINK_STALL_PERIOD=4,SINK_STALL_READY=1)/dut/u_fifo/Always163_9  Scope: \tb_pcie_axi_dma(TB_SCENARIO=2,FIFO_DEPTH=256,BATCH_COUNT=4,BATCH_TIMEOUT=64,SINK_STALL_EN=1'b1,SINK_STALL_PERIOD=4,SINK_STALL_READY=1) .dut.u_fifo  File: /get/work/krishna.vardhan/git_trees/mtp_pcie_axi/pcie_axi_dma_latency/design/rtl/axis_fifo.sv Line: 165
Warning: [axis_fifo] FIFO full (depth=256) — upstream back-pressured at t=48015000
Time: 48015 ns  Iteration: 0  Process: /tb_pcie_axi_dma(TB_SCENARIO=2,FIFO_DEPTH=256,BATCH_COUNT=4,BATCH_TIMEOUT=64,SINK_STALL_EN=1'b1,SINK_STALL_PERIOD=4,SINK_STALL_READY=1)/dut/u_fifo/Always163_9  Scope: \tb_pcie_axi_dma(TB_SCENARIO=2,FIFO_DEPTH=256,BATCH_COUNT=4,BATCH_TIMEOUT=64,SINK_STALL_EN=1'b1,SINK_STALL_PERIOD=4,SINK_STALL_READY=1) .dut.u_fifo  File: /get/work/krishna.vardhan/git_trees/mtp_pcie_axi/pcie_axi_dma_latency/design/rtl/axis_fifo.sv Line: 165
Warning: [axis_fifo] FIFO full (depth=256) — upstream back-pressured at t=48035000
Time: 48035 ns  Iteration: 0  Process: /tb_pcie_axi_dma(TB_SCENARIO=2,FIFO_DEPTH=256,BATCH_COUNT=4,BATCH_TIMEOUT=64,SINK_STALL_EN=1'b1,SINK_STALL_PERIOD=4,SINK_STALL_READY=1)/dut/u_fifo/Always163_9  Scope: \tb_pcie_axi_dma(TB_SCENARIO=2,FIFO_DEPTH=256,BATCH_COUNT=4,BATCH_TIMEOUT=64,SINK_STALL_EN=1'b1,SINK_STALL_PERIOD=4,SINK_STALL_READY=1) .dut.u_fifo  File: /get/work/krishna.vardhan/git_trees/mtp_pcie_axi/pcie_axi_dma_latency/design/rtl/axis_fifo.sv Line: 165
Warning: [axis_fifo] FIFO full (depth=256) — upstream back-pressured at t=48045000
Time: 48045 ns  Iteration: 0  Process: /tb_pcie_axi_dma(TB_SCENARIO=2,FIFO_DEPTH=256,BATCH_COUNT=4,BATCH_TIMEOUT=64,SINK_STALL_EN=1'b1,SINK_STALL_PERIOD=4,SINK_STALL_READY=1)/dut/u_fifo/Always163_9  Scope: \tb_pcie_axi_dma(TB_SCENARIO=2,FIFO_DEPTH=256,BATCH_COUNT=4,BATCH_TIMEOUT=64,SINK_STALL_EN=1'b1,SINK_STALL_PERIOD=4,SINK_STALL_READY=1) .dut.u_fifo  File: /get/work/krishna.vardhan/git_trees/mtp_pcie_axi/pcie_axi_dma_latency/design/rtl/axis_fifo.sv Line: 165
Warning: [axis_fifo] FIFO full (depth=256) — upstream back-pressured at t=48055000
Time: 48055 ns  Iteration: 0  Process: /tb_pcie_axi_dma(TB_SCENARIO=2,FIFO_DEPTH=256,BATCH_COUNT=4,BATCH_TIMEOUT=64,SINK_STALL_EN=1'b1,SINK_STALL_PERIOD=4,SINK_STALL_READY=1)/dut/u_fifo/Always163_9  Scope: \tb_pcie_axi_dma(TB_SCENARIO=2,FIFO_DEPTH=256,BATCH_COUNT=4,BATCH_TIMEOUT=64,SINK_STALL_EN=1'b1,SINK_STALL_PERIOD=4,SINK_STALL_READY=1) .dut.u_fifo  File: /get/work/krishna.vardhan/git_trees/mtp_pcie_axi/pcie_axi_dma_latency/design/rtl/axis_fifo.sv Line: 165
Warning: [axis_fifo] FIFO full (depth=256) — upstream back-pressured at t=48075000
Time: 48075 ns  Iteration: 0  Process: /tb_pcie_axi_dma(TB_SCENARIO=2,FIFO_DEPTH=256,BATCH_COUNT=4,BATCH_TIMEOUT=64,SINK_STALL_EN=1'b1,SINK_STALL_PERIOD=4,SINK_STALL_READY=1)/dut/u_fifo/Always163_9  Scope: \tb_pcie_axi_dma(TB_SCENARIO=2,FIFO_DEPTH=256,BATCH_COUNT=4,BATCH_TIMEOUT=64,SINK_STALL_EN=1'b1,SINK_STALL_PERIOD=4,SINK_STALL_READY=1) .dut.u_fifo  File: /get/work/krishna.vardhan/git_trees/mtp_pcie_axi/pcie_axi_dma_latency/design/rtl/axis_fifo.sv Line: 165
Warning: [axis_fifo] FIFO full (depth=256) — upstream back-pressured at t=48085000
Time: 48085 ns  Iteration: 0  Process: /tb_pcie_axi_dma(TB_SCENARIO=2,FIFO_DEPTH=256,BATCH_COUNT=4,BATCH_TIMEOUT=64,SINK_STALL_EN=1'b1,SINK_STALL_PERIOD=4,SINK_STALL_READY=1)/dut/u_fifo/Always163_9  Scope: \tb_pcie_axi_dma(TB_SCENARIO=2,FIFO_DEPTH=256,BATCH_COUNT=4,BATCH_TIMEOUT=64,SINK_STALL_EN=1'b1,SINK_STALL_PERIOD=4,SINK_STALL_READY=1) .dut.u_fifo  File: /get/work/krishna.vardhan/git_trees/mtp_pcie_axi/pcie_axi_dma_latency/design/rtl/axis_fifo.sv Line: 165
Warning: [axis_fifo] FIFO full (depth=256) — upstream back-pressured at t=48095000
Time: 48095 ns  Iteration: 0  Process: /tb_pcie_axi_dma(TB_SCENARIO=2,FIFO_DEPTH=256,BATCH_COUNT=4,BATCH_TIMEOUT=64,SINK_STALL_EN=1'b1,SINK_STALL_PERIOD=4,SINK_STALL_READY=1)/dut/u_fifo/Always163_9  Scope: \tb_pcie_axi_dma(TB_SCENARIO=2,FIFO_DEPTH=256,BATCH_COUNT=4,BATCH_TIMEOUT=64,SINK_STALL_EN=1'b1,SINK_STALL_PERIOD=4,SINK_STALL_READY=1) .dut.u_fifo  File: /get/work/krishna.vardhan/git_trees/mtp_pcie_axi/pcie_axi_dma_latency/design/rtl/axis_fifo.sv Line: 165
Warning: [axis_fifo] FIFO full (depth=256) — upstream back-pressured at t=48115000
Time: 48115 ns  Iteration: 0  Process: /tb_pcie_axi_dma(TB_SCENARIO=2,FIFO_DEPTH=256,BATCH_COUNT=4,BATCH_TIMEOUT=64,SINK_STALL_EN=1'b1,SINK_STALL_PERIOD=4,SINK_STALL_READY=1)/dut/u_fifo/Always163_9  Scope: \tb_pcie_axi_dma(TB_SCENARIO=2,FIFO_DEPTH=256,BATCH_COUNT=4,BATCH_TIMEOUT=64,SINK_STALL_EN=1'b1,SINK_STALL_PERIOD=4,SINK_STALL_READY=1) .dut.u_fifo  File: /get/work/krishna.vardhan/git_trees/mtp_pcie_axi/pcie_axi_dma_latency/design/rtl/axis_fifo.sv Line: 165
Warning: [axis_fifo] FIFO full (depth=256) — upstream back-pressured at t=48125000
Time: 48125 ns  Iteration: 0  Process: /tb_pcie_axi_dma(TB_SCENARIO=2,FIFO_DEPTH=256,BATCH_COUNT=4,BATCH_TIMEOUT=64,SINK_STALL_EN=1'b1,SINK_STALL_PERIOD=4,SINK_STALL_READY=1)/dut/u_fifo/Always163_9  Scope: \tb_pcie_axi_dma(TB_SCENARIO=2,FIFO_DEPTH=256,BATCH_COUNT=4,BATCH_TIMEOUT=64,SINK_STALL_EN=1'b1,SINK_STALL_PERIOD=4,SINK_STALL_READY=1) .dut.u_fifo  File: /get/work/krishna.vardhan/git_trees/mtp_pcie_axi/pcie_axi_dma_latency/design/rtl/axis_fifo.sv Line: 165
Warning: [axis_fifo] FIFO full (depth=256) — upstream back-pressured at t=48135000
Time: 48135 ns  Iteration: 0  Process: /tb_pcie_axi_dma(TB_SCENARIO=2,FIFO_DEPTH=256,BATCH_COUNT=4,BATCH_TIMEOUT=64,SINK_STALL_EN=1'b1,SINK_STALL_PERIOD=4,SINK_STALL_READY=1)/dut/u_fifo/Always163_9  Scope: \tb_pcie_axi_dma(TB_SCENARIO=2,FIFO_DEPTH=256,BATCH_COUNT=4,BATCH_TIMEOUT=64,SINK_STALL_EN=1'b1,SINK_STALL_PERIOD=4,SINK_STALL_READY=1) .dut.u_fifo  File: /get/work/krishna.vardhan/git_trees/mtp_pcie_axi/pcie_axi_dma_latency/design/rtl/axis_fifo.sv Line: 165
Warning: [axis_fifo] FIFO full (depth=256) — upstream back-pressured at t=48155000
Time: 48155 ns  Iteration: 0  Process: /tb_pcie_axi_dma(TB_SCENARIO=2,FIFO_DEPTH=256,BATCH_COUNT=4,BATCH_TIMEOUT=64,SINK_STALL_EN=1'b1,SINK_STALL_PERIOD=4,SINK_STALL_READY=1)/dut/u_fifo/Always163_9  Scope: \tb_pcie_axi_dma(TB_SCENARIO=2,FIFO_DEPTH=256,BATCH_COUNT=4,BATCH_TIMEOUT=64,SINK_STALL_EN=1'b1,SINK_STALL_PERIOD=4,SINK_STALL_READY=1) .dut.u_fifo  File: /get/work/krishna.vardhan/git_trees/mtp_pcie_axi/pcie_axi_dma_latency/design/rtl/axis_fifo.sv Line: 165
Warning: [axis_fifo] FIFO full (depth=256) — upstream back-pressured at t=48165000
Time: 48165 ns  Iteration: 0  Process: /tb_pcie_axi_dma(TB_SCENARIO=2,FIFO_DEPTH=256,BATCH_COUNT=4,BATCH_TIMEOUT=64,SINK_STALL_EN=1'b1,SINK_STALL_PERIOD=4,SINK_STALL_READY=1)/dut/u_fifo/Always163_9  Scope: \tb_pcie_axi_dma(TB_SCENARIO=2,FIFO_DEPTH=256,BATCH_COUNT=4,BATCH_TIMEOUT=64,SINK_STALL_EN=1'b1,SINK_STALL_PERIOD=4,SINK_STALL_READY=1) .dut.u_fifo  File: /get/work/krishna.vardhan/git_trees/mtp_pcie_axi/pcie_axi_dma_latency/design/rtl/axis_fifo.sv Line: 165
Warning: [axis_fifo] FIFO full (depth=256) — upstream back-pressured at t=48175000
Time: 48175 ns  Iteration: 0  Process: /tb_pcie_axi_dma(TB_SCENARIO=2,FIFO_DEPTH=256,BATCH_COUNT=4,BATCH_TIMEOUT=64,SINK_STALL_EN=1'b1,SINK_STALL_PERIOD=4,SINK_STALL_READY=1)/dut/u_fifo/Always163_9  Scope: \tb_pcie_axi_dma(TB_SCENARIO=2,FIFO_DEPTH=256,BATCH_COUNT=4,BATCH_TIMEOUT=64,SINK_STALL_EN=1'b1,SINK_STALL_PERIOD=4,SINK_STALL_READY=1) .dut.u_fifo  File: /get/work/krishna.vardhan/git_trees/mtp_pcie_axi/pcie_axi_dma_latency/design/rtl/axis_fifo.sv Line: 165
Warning: [axis_fifo] FIFO full (depth=256) — upstream back-pressured at t=48195000
Time: 48195 ns  Iteration: 0  Process: /tb_pcie_axi_dma(TB_SCENARIO=2,FIFO_DEPTH=256,BATCH_COUNT=4,BATCH_TIMEOUT=64,SINK_STALL_EN=1'b1,SINK_STALL_PERIOD=4,SINK_STALL_READY=1)/dut/u_fifo/Always163_9  Scope: \tb_pcie_axi_dma(TB_SCENARIO=2,FIFO_DEPTH=256,BATCH_COUNT=4,BATCH_TIMEOUT=64,SINK_STALL_EN=1'b1,SINK_STALL_PERIOD=4,SINK_STALL_READY=1) .dut.u_fifo  File: /get/work/krishna.vardhan/git_trees/mtp_pcie_axi/pcie_axi_dma_latency/design/rtl/axis_fifo.sv Line: 165
Warning: [axis_fifo] FIFO full (depth=256) — upstream back-pressured at t=48205000
Time: 48205 ns  Iteration: 0  Process: /tb_pcie_axi_dma(TB_SCENARIO=2,FIFO_DEPTH=256,BATCH_COUNT=4,BATCH_TIMEOUT=64,SINK_STALL_EN=1'b1,SINK_STALL_PERIOD=4,SINK_STALL_READY=1)/dut/u_fifo/Always163_9  Scope: \tb_pcie_axi_dma(TB_SCENARIO=2,FIFO_DEPTH=256,BATCH_COUNT=4,BATCH_TIMEOUT=64,SINK_STALL_EN=1'b1,SINK_STALL_PERIOD=4,SINK_STALL_READY=1) .dut.u_fifo  File: /get/work/krishna.vardhan/git_trees/mtp_pcie_axi/pcie_axi_dma_latency/design/rtl/axis_fifo.sv Line: 165
Warning: [axis_fifo] FIFO full (depth=256) — upstream back-pressured at t=48215000
Time: 48215 ns  Iteration: 0  Process: /tb_pcie_axi_dma(TB_SCENARIO=2,FIFO_DEPTH=256,BATCH_COUNT=4,BATCH_TIMEOUT=64,SINK_STALL_EN=1'b1,SINK_STALL_PERIOD=4,SINK_STALL_READY=1)/dut/u_fifo/Always163_9  Scope: \tb_pcie_axi_dma(TB_SCENARIO=2,FIFO_DEPTH=256,BATCH_COUNT=4,BATCH_TIMEOUT=64,SINK_STALL_EN=1'b1,SINK_STALL_PERIOD=4,SINK_STALL_READY=1) .dut.u_fifo  File: /get/work/krishna.vardhan/git_trees/mtp_pcie_axi/pcie_axi_dma_latency/design/rtl/axis_fifo.sv Line: 165
Warning: [axis_fifo] FIFO full (depth=256) — upstream back-pressured at t=48235000
Time: 48235 ns  Iteration: 0  Process: /tb_pcie_axi_dma(TB_SCENARIO=2,FIFO_DEPTH=256,BATCH_COUNT=4,BATCH_TIMEOUT=64,SINK_STALL_EN=1'b1,SINK_STALL_PERIOD=4,SINK_STALL_READY=1)/dut/u_fifo/Always163_9  Scope: \tb_pcie_axi_dma(TB_SCENARIO=2,FIFO_DEPTH=256,BATCH_COUNT=4,BATCH_TIMEOUT=64,SINK_STALL_EN=1'b1,SINK_STALL_PERIOD=4,SINK_STALL_READY=1) .dut.u_fifo  File: /get/work/krishna.vardhan/git_trees/mtp_pcie_axi/pcie_axi_dma_latency/design/rtl/axis_fifo.sv Line: 165
Warning: [axis_fifo] FIFO full (depth=256) — upstream back-pressured at t=48245000
Time: 48245 ns  Iteration: 0  Process: /tb_pcie_axi_dma(TB_SCENARIO=2,FIFO_DEPTH=256,BATCH_COUNT=4,BATCH_TIMEOUT=64,SINK_STALL_EN=1'b1,SINK_STALL_PERIOD=4,SINK_STALL_READY=1)/dut/u_fifo/Always163_9  Scope: \tb_pcie_axi_dma(TB_SCENARIO=2,FIFO_DEPTH=256,BATCH_COUNT=4,BATCH_TIMEOUT=64,SINK_STALL_EN=1'b1,SINK_STALL_PERIOD=4,SINK_STALL_READY=1) .dut.u_fifo  File: /get/work/krishna.vardhan/git_trees/mtp_pcie_axi/pcie_axi_dma_latency/design/rtl/axis_fifo.sv Line: 165
Warning: [axis_fifo] FIFO full (depth=256) — upstream back-pressured at t=48255000
Time: 48255 ns  Iteration: 0  Process: /tb_pcie_axi_dma(TB_SCENARIO=2,FIFO_DEPTH=256,BATCH_COUNT=4,BATCH_TIMEOUT=64,SINK_STALL_EN=1'b1,SINK_STALL_PERIOD=4,SINK_STALL_READY=1)/dut/u_fifo/Always163_9  Scope: \tb_pcie_axi_dma(TB_SCENARIO=2,FIFO_DEPTH=256,BATCH_COUNT=4,BATCH_TIMEOUT=64,SINK_STALL_EN=1'b1,SINK_STALL_PERIOD=4,SINK_STALL_READY=1) .dut.u_fifo  File: /get/work/krishna.vardhan/git_trees/mtp_pcie_axi/pcie_axi_dma_latency/design/rtl/axis_fifo.sv Line: 165
Warning: [axis_fifo] FIFO full (depth=256) — upstream back-pressured at t=48275000
Time: 48275 ns  Iteration: 0  Process: /tb_pcie_axi_dma(TB_SCENARIO=2,FIFO_DEPTH=256,BATCH_COUNT=4,BATCH_TIMEOUT=64,SINK_STALL_EN=1'b1,SINK_STALL_PERIOD=4,SINK_STALL_READY=1)/dut/u_fifo/Always163_9  Scope: \tb_pcie_axi_dma(TB_SCENARIO=2,FIFO_DEPTH=256,BATCH_COUNT=4,BATCH_TIMEOUT=64,SINK_STALL_EN=1'b1,SINK_STALL_PERIOD=4,SINK_STALL_READY=1) .dut.u_fifo  File: /get/work/krishna.vardhan/git_trees/mtp_pcie_axi/pcie_axi_dma_latency/design/rtl/axis_fifo.sv Line: 165
Warning: [axis_fifo] FIFO full (depth=256) — upstream back-pressured at t=48285000
Time: 48285 ns  Iteration: 0  Process: /tb_pcie_axi_dma(TB_SCENARIO=2,FIFO_DEPTH=256,BATCH_COUNT=4,BATCH_TIMEOUT=64,SINK_STALL_EN=1'b1,SINK_STALL_PERIOD=4,SINK_STALL_READY=1)/dut/u_fifo/Always163_9  Scope: \tb_pcie_axi_dma(TB_SCENARIO=2,FIFO_DEPTH=256,BATCH_COUNT=4,BATCH_TIMEOUT=64,SINK_STALL_EN=1'b1,SINK_STALL_PERIOD=4,SINK_STALL_READY=1) .dut.u_fifo  File: /get/work/krishna.vardhan/git_trees/mtp_pcie_axi/pcie_axi_dma_latency/design/rtl/axis_fifo.sv Line: 165
Warning: [axis_fifo] FIFO full (depth=256) — upstream back-pressured at t=48295000
Time: 48295 ns  Iteration: 0  Process: /tb_pcie_axi_dma(TB_SCENARIO=2,FIFO_DEPTH=256,BATCH_COUNT=4,BATCH_TIMEOUT=64,SINK_STALL_EN=1'b1,SINK_STALL_PERIOD=4,SINK_STALL_READY=1)/dut/u_fifo/Always163_9  Scope: \tb_pcie_axi_dma(TB_SCENARIO=2,FIFO_DEPTH=256,BATCH_COUNT=4,BATCH_TIMEOUT=64,SINK_STALL_EN=1'b1,SINK_STALL_PERIOD=4,SINK_STALL_READY=1) .dut.u_fifo  File: /get/work/krishna.vardhan/git_trees/mtp_pcie_axi/pcie_axi_dma_latency/design/rtl/axis_fifo.sv Line: 165
Warning: [axis_fifo] FIFO full (depth=256) — upstream back-pressured at t=48315000
Time: 48315 ns  Iteration: 0  Process: /tb_pcie_axi_dma(TB_SCENARIO=2,FIFO_DEPTH=256,BATCH_COUNT=4,BATCH_TIMEOUT=64,SINK_STALL_EN=1'b1,SINK_STALL_PERIOD=4,SINK_STALL_READY=1)/dut/u_fifo/Always163_9  Scope: \tb_pcie_axi_dma(TB_SCENARIO=2,FIFO_DEPTH=256,BATCH_COUNT=4,BATCH_TIMEOUT=64,SINK_STALL_EN=1'b1,SINK_STALL_PERIOD=4,SINK_STALL_READY=1) .dut.u_fifo  File: /get/work/krishna.vardhan/git_trees/mtp_pcie_axi/pcie_axi_dma_latency/design/rtl/axis_fifo.sv Line: 165
Warning: [axis_fifo] FIFO full (depth=256) — upstream back-pressured at t=48325000
Time: 48325 ns  Iteration: 0  Process: /tb_pcie_axi_dma(TB_SCENARIO=2,FIFO_DEPTH=256,BATCH_COUNT=4,BATCH_TIMEOUT=64,SINK_STALL_EN=1'b1,SINK_STALL_PERIOD=4,SINK_STALL_READY=1)/dut/u_fifo/Always163_9  Scope: \tb_pcie_axi_dma(TB_SCENARIO=2,FIFO_DEPTH=256,BATCH_COUNT=4,BATCH_TIMEOUT=64,SINK_STALL_EN=1'b1,SINK_STALL_PERIOD=4,SINK_STALL_READY=1) .dut.u_fifo  File: /get/work/krishna.vardhan/git_trees/mtp_pcie_axi/pcie_axi_dma_latency/design/rtl/axis_fifo.sv Line: 165
Warning: [axis_fifo] FIFO full (depth=256) — upstream back-pressured at t=48335000
Time: 48335 ns  Iteration: 0  Process: /tb_pcie_axi_dma(TB_SCENARIO=2,FIFO_DEPTH=256,BATCH_COUNT=4,BATCH_TIMEOUT=64,SINK_STALL_EN=1'b1,SINK_STALL_PERIOD=4,SINK_STALL_READY=1)/dut/u_fifo/Always163_9  Scope: \tb_pcie_axi_dma(TB_SCENARIO=2,FIFO_DEPTH=256,BATCH_COUNT=4,BATCH_TIMEOUT=64,SINK_STALL_EN=1'b1,SINK_STALL_PERIOD=4,SINK_STALL_READY=1) .dut.u_fifo  File: /get/work/krishna.vardhan/git_trees/mtp_pcie_axi/pcie_axi_dma_latency/design/rtl/axis_fifo.sv Line: 165
Warning: [axis_fifo] FIFO full (depth=256) — upstream back-pressured at t=48355000
Time: 48355 ns  Iteration: 0  Process: /tb_pcie_axi_dma(TB_SCENARIO=2,FIFO_DEPTH=256,BATCH_COUNT=4,BATCH_TIMEOUT=64,SINK_STALL_EN=1'b1,SINK_STALL_PERIOD=4,SINK_STALL_READY=1)/dut/u_fifo/Always163_9  Scope: \tb_pcie_axi_dma(TB_SCENARIO=2,FIFO_DEPTH=256,BATCH_COUNT=4,BATCH_TIMEOUT=64,SINK_STALL_EN=1'b1,SINK_STALL_PERIOD=4,SINK_STALL_READY=1) .dut.u_fifo  File: /get/work/krishna.vardhan/git_trees/mtp_pcie_axi/pcie_axi_dma_latency/design/rtl/axis_fifo.sv Line: 165
Warning: [axis_fifo] FIFO full (depth=256) — upstream back-pressured at t=48365000
Time: 48365 ns  Iteration: 0  Process: /tb_pcie_axi_dma(TB_SCENARIO=2,FIFO_DEPTH=256,BATCH_COUNT=4,BATCH_TIMEOUT=64,SINK_STALL_EN=1'b1,SINK_STALL_PERIOD=4,SINK_STALL_READY=1)/dut/u_fifo/Always163_9  Scope: \tb_pcie_axi_dma(TB_SCENARIO=2,FIFO_DEPTH=256,BATCH_COUNT=4,BATCH_TIMEOUT=64,SINK_STALL_EN=1'b1,SINK_STALL_PERIOD=4,SINK_STALL_READY=1) .dut.u_fifo  File: /get/work/krishna.vardhan/git_trees/mtp_pcie_axi/pcie_axi_dma_latency/design/rtl/axis_fifo.sv Line: 165
Warning: [axis_fifo] FIFO full (depth=256) — upstream back-pressured at t=48375000
Time: 48375 ns  Iteration: 0  Process: /tb_pcie_axi_dma(TB_SCENARIO=2,FIFO_DEPTH=256,BATCH_COUNT=4,BATCH_TIMEOUT=64,SINK_STALL_EN=1'b1,SINK_STALL_PERIOD=4,SINK_STALL_READY=1)/dut/u_fifo/Always163_9  Scope: \tb_pcie_axi_dma(TB_SCENARIO=2,FIFO_DEPTH=256,BATCH_COUNT=4,BATCH_TIMEOUT=64,SINK_STALL_EN=1'b1,SINK_STALL_PERIOD=4,SINK_STALL_READY=1) .dut.u_fifo  File: /get/work/krishna.vardhan/git_trees/mtp_pcie_axi/pcie_axi_dma_latency/design/rtl/axis_fifo.sv Line: 165
Warning: [axis_fifo] FIFO full (depth=256) — upstream back-pressured at t=48395000
Time: 48395 ns  Iteration: 0  Process: /tb_pcie_axi_dma(TB_SCENARIO=2,FIFO_DEPTH=256,BATCH_COUNT=4,BATCH_TIMEOUT=64,SINK_STALL_EN=1'b1,SINK_STALL_PERIOD=4,SINK_STALL_READY=1)/dut/u_fifo/Always163_9  Scope: \tb_pcie_axi_dma(TB_SCENARIO=2,FIFO_DEPTH=256,BATCH_COUNT=4,BATCH_TIMEOUT=64,SINK_STALL_EN=1'b1,SINK_STALL_PERIOD=4,SINK_STALL_READY=1) .dut.u_fifo  File: /get/work/krishna.vardhan/git_trees/mtp_pcie_axi/pcie_axi_dma_latency/design/rtl/axis_fifo.sv Line: 165
Warning: [axis_fifo] FIFO full (depth=256) — upstream back-pressured at t=48405000
Time: 48405 ns  Iteration: 0  Process: /tb_pcie_axi_dma(TB_SCENARIO=2,FIFO_DEPTH=256,BATCH_COUNT=4,BATCH_TIMEOUT=64,SINK_STALL_EN=1'b1,SINK_STALL_PERIOD=4,SINK_STALL_READY=1)/dut/u_fifo/Always163_9  Scope: \tb_pcie_axi_dma(TB_SCENARIO=2,FIFO_DEPTH=256,BATCH_COUNT=4,BATCH_TIMEOUT=64,SINK_STALL_EN=1'b1,SINK_STALL_PERIOD=4,SINK_STALL_READY=1) .dut.u_fifo  File: /get/work/krishna.vardhan/git_trees/mtp_pcie_axi/pcie_axi_dma_latency/design/rtl/axis_fifo.sv Line: 165
Warning: [axis_fifo] FIFO full (depth=256) — upstream back-pressured at t=48415000
Time: 48415 ns  Iteration: 0  Process: /tb_pcie_axi_dma(TB_SCENARIO=2,FIFO_DEPTH=256,BATCH_COUNT=4,BATCH_TIMEOUT=64,SINK_STALL_EN=1'b1,SINK_STALL_PERIOD=4,SINK_STALL_READY=1)/dut/u_fifo/Always163_9  Scope: \tb_pcie_axi_dma(TB_SCENARIO=2,FIFO_DEPTH=256,BATCH_COUNT=4,BATCH_TIMEOUT=64,SINK_STALL_EN=1'b1,SINK_STALL_PERIOD=4,SINK_STALL_READY=1) .dut.u_fifo  File: /get/work/krishna.vardhan/git_trees/mtp_pcie_axi/pcie_axi_dma_latency/design/rtl/axis_fifo.sv Line: 165
Warning: [axis_fifo] FIFO full (depth=256) — upstream back-pressured at t=48435000
